<Qucs Dataset 24.4.1>
<indep frequency 121>
1.000000000000e+00
1.122018454302e+00
1.258925411794e+00
1.412537544623e+00
1.584893192461e+00
1.778279410039e+00
1.995262314969e+00
2.238721138568e+00
2.511886431510e+00
2.818382931264e+00
3.162277660168e+00
3.548133892336e+00
3.981071705535e+00
4.466835921510e+00
5.011872336273e+00
5.623413251903e+00
6.309573444802e+00
7.079457843841e+00
7.943282347243e+00
8.912509381337e+00
1.000000000000e+01
1.122018454302e+01
1.258925411794e+01
1.412537544623e+01
1.584893192461e+01
1.778279410039e+01
1.995262314969e+01
2.238721138568e+01
2.511886431510e+01
2.818382931264e+01
3.162277660168e+01
3.548133892336e+01
3.981071705535e+01
4.466835921510e+01
5.011872336273e+01
5.623413251903e+01
6.309573444802e+01
7.079457843841e+01
7.943282347243e+01
8.912509381337e+01
1.000000000000e+02
1.122018454302e+02
1.258925411794e+02
1.412537544623e+02
1.584893192461e+02
1.778279410039e+02
1.995262314969e+02
2.238721138568e+02
2.511886431510e+02
2.818382931264e+02
3.162277660168e+02
3.548133892336e+02
3.981071705535e+02
4.466835921510e+02
5.011872336273e+02
5.623413251903e+02
6.309573444802e+02
7.079457843841e+02
7.943282347243e+02
8.912509381337e+02
1.000000000000e+03
1.122018454302e+03
1.258925411794e+03
1.412537544623e+03
1.584893192461e+03
1.778279410039e+03
1.995262314969e+03
2.238721138568e+03
2.511886431510e+03
2.818382931264e+03
3.162277660168e+03
3.548133892336e+03
3.981071705535e+03
4.466835921510e+03
5.011872336273e+03
5.623413251903e+03
6.309573444802e+03
7.079457843841e+03
7.943282347243e+03
8.912509381337e+03
1.000000000000e+04
1.122018454302e+04
1.258925411794e+04
1.412537544623e+04
1.584893192461e+04
1.778279410039e+04
1.995262314969e+04
2.238721138568e+04
2.511886431510e+04
2.818382931264e+04
3.162277660168e+04
3.548133892336e+04
3.981071705535e+04
4.466835921510e+04
5.011872336273e+04
5.623413251903e+04
6.309573444802e+04
7.079457843841e+04
7.943282347243e+04
8.912509381337e+04
1.000000000000e+05
1.122018454302e+05
1.258925411794e+05
1.412537544623e+05
1.584893192461e+05
1.778279410039e+05
1.995262314969e+05
2.238721138568e+05
2.511886431510e+05
2.818382931264e+05
3.162277660168e+05
3.548133892336e+05
3.981071705535e+05
4.466835921510e+05
5.011872336273e+05
5.623413251903e+05
6.309573444802e+05
7.079457843841e+05
7.943282347243e+05
8.912509381337e+05
1.000000000000e+06
</indep>
<dep ac.v(ns11) frequency>
6.284306408588e-12+j3.141692612836e-08
7.911449273479e-12+j3.525066129411e-08
9.960032798517e-12+j3.955230270023e-08
1.253908088472e-11+j4.437899296531e-08
1.578581709794e-11+j4.979486755075e-08
1.987343623000e-11+j5.587191642740e-08
2.501998608295e-11+j6.269095435157e-08
3.149946969927e-11+j7.034271443470e-08
3.965716643961e-11+j7.892908207021e-08
4.992806168502e-11+j8.856448920340e-08
6.285971743125e-11+j9.937749254161e-08
7.914247035501e-11+j1.115125638463e-07
9.964473690616e-11+j1.251321262376e-07
1.254614190316e-10+j1.404188778968e-07
1.579727459955e-10+j1.575784542990e-07
1.989168829652e-10+j1.768424929645e-07
2.504865204145e-10+j1.984721818961e-07
3.154472238975e-10+j2.227623959797e-07
3.972886464254e-10+j2.500465570369e-07
5.004161529598e-10+j2.807023961392e-07
6.303984001477e-10+j3.151588558485e-07
7.942762003665e-10+j3.539044516865e-07
1.000968197218e-09+j3.974975254103e-07
1.261781790163e-09+j4.465789804724e-07
1.591085485586e-09+j5.018883103875e-07
2.007171762131e-09+j5.642840391366e-07
2.533400156324e-09+j6.347701251791e-07
3.199696285705e-09+j7.145304879268e-07
4.044558021832e-09+j8.049746692291e-07
5.117755108586e-09+j9.077988437486e-07
6.484014214436e-09+j1.025068083849e-06
8.228095316198e-09+j1.159328168236e-06
1.046190134524e-08+j1.313758583751e-06
1.333454036079e-08+j1.492383107841e-06
1.704677554670e-08+j1.700361042477e-06
2.187202863269e-08+j1.944391598330e-06
2.818728850329e-08+j2.233277230109e-06
3.651909219471e-08+j2.578710492397e-06
4.761261940267e-08+j2.996375466403e-06
6.253644668774e-08+j3.507492168105e-06
8.284256880486e-08+j4.140985049576e-06
1.108124720872e-07+j4.936531031376e-06
1.498376116515e-07+j5.948847297137e-06
2.050104348505e-07+j7.253726771964e-06
2.840459458753e-07+j8.956537244989e-06
3.987231484981e-07+j1.120419294645e-05
5.671453453537e-07+j1.420201926619e-05
8.172916516891e-07+j1.823750994252e-05
1.192606395417e-06+j2.371378782235e-05
1.760806964457e-06+j3.119671705682e-05
2.627777070607e-06+j4.148120274734e-05
3.959498026784e-06+j5.568442616957e-05
6.016687279731e-06+j7.537683292866e-05
9.209526823595e-06+j1.027659282004e-04
1.418415076038e-05+j1.409537425583e-04
2.195932850091e-05+j1.942967261010e-04
3.414245356903e-05+j2.689074251442e-04
5.327076224138e-05+j3.733512778441e-04
8.335015317695e-05+j5.196098615236e-04
1.307054938322e-04+j7.244042244600e-04
2.053212970863e-04+j1.010997880086e-03
3.229530705431e-04+j1.411625798809e-03
5.084471840888e-04+j1.970715900044e-03
8.009503667006e-04+j2.749066581241e-03
1.262062514717e-03+j3.829083416829e-03
1.988550564565e-03+j5.320992126790e-03
3.132080836257e-03+j7.369501121472e-03
4.929644510483e-03+j1.015943337232e-02
7.750037971070e-03+j1.391690824236e-02
1.216390253321e-02+j1.889883809369e-02
1.904702050456e-02+j2.535616174066e-02
2.972721347542e-02+j3.344238811881e-02
4.617937755690e-02+j4.301363452309e-02
7.124717258046e-02+j5.322241141203e-02
1.087880888796e-01+j6.174179565979e-02
1.634196029126e-01+j6.340088562306e-02
2.390517493082e-01+j4.814594716396e-02
3.346393843507e-01-j8.284479778852e-04
4.358294966403e-01-j1.050874413416e-01
5.068864143348e-01-j2.778505233034e-01
5.000154659373e-01-j5.002519621600e-01
3.920521277430e-01-j7.159914481685e-01
2.092306908316e-01-j8.692508092430e-01
2.024305589541e-03-j9.424729493235e-01
-1.917457796727e-01-j9.507477224594e-01
-3.563077694688e-01-j9.178291617034e-01
-4.898718498316e-01-j8.628053753506e-01
-5.962145413881e-01-j7.979047376780e-01
-6.803105512151e-01-j7.302153149429e-01
-7.467201065510e-01-j6.636405867373e-01
-7.991950662547e-01-j6.002405756392e-01
-8.407073034704e-01-j5.410273005025e-01
-8.735838643637e-01-j4.864156938495e-01
-8.996446995950e-01-j4.364786333385e-01
-9.203165745385e-01-j3.910937743363e-01
-9.367215381583e-01-j3.500302169404e-01
-9.497445014488e-01-j3.130008634790e-01
-9.600849021380e-01-j2.796945496002e-01
-9.682964717759e-01-j2.497958436181e-01
-9.748180831072e-01-j2.229971086944e-01
-9.799978408706e-01-j1.990056088106e-01
-9.841119950720e-01-j1.775474026630e-01
-9.873798463155e-01-j1.583691510784e-01
-9.899755238613e-01-j1.412385794287e-01
-9.920373093747e-01-j1.259440897420e-01
-9.936750266741e-01-j1.122938544871e-01
-9.949759032636e-01-j1.001146147317e-01
-9.960092220731e-01-j8.925033112307e-02
-9.968300143205e-01-j7.956078538158e-02
-9.974819917748e-01-j7.092019522419e-02
-9.979998753914e-01-j6.321588185849e-02
-9.984112447400e-01-j5.634701301493e-02
-9.987380069207e-01-j5.022343358388e-02
-9.989975632977e-01-j4.476458867663e-02
-9.992037362349e-01-j3.989853921046e-02
-9.993675052113e-01-j3.556106713989e-02
-9.994975915300e-01-j3.169486567024e-02
-9.996009227651e-01-j2.824880881091e-02
-9.996830016827e-01-j2.517729418846e-02
-9.997481992848e-01-j2.243965295597e-02
-9.997999875814e-01-j1.999962077927e-02
</dep>
<dep ac.v(ns12) frequency>
9.999999799950e-01-j2.000252032538e-04
9.999999748151e-01-j2.244319690857e-04
9.999999682941e-01-j2.518168106391e-04
9.999999600847e-01-j2.825431080607e-04
9.999999497496e-01-j3.170185805610e-04
9.999999367385e-01-j3.557006965892e-04
9.999999203585e-01-j3.991027441470e-04
9.999998997373e-01-j4.478006417874e-04
9.999998737767e-01-j5.024405806733e-04
9.999998410943e-01-j5.637475991002e-04
9.999997999496e-01-j6.325352032535e-04
9.999997481514e-01-j7.097161618570e-04
9.999996829415e-01-j7.963146179400e-04
9.999996008469e-01-j8.934796784245e-04
9.999994974961e-01-j1.002500661838e-03
9.999993673850e-01-j1.124824206450e-03
9.999992035849e-01-j1.262073465808e-03
9.999989973729e-01-j1.416069646331e-03
9.999987377672e-01-j1.588856172657e-03
9.999984109431e-01-j1.782725801316e-03
9.999979994958e-01-j2.000251042319e-03
9.999974815145e-01-j2.244318292136e-03
9.999968294146e-01-j2.518166130644e-03
9.999960084694e-01-j2.825428289791e-03
9.999949749607e-01-j3.170181863477e-03
9.999936738504e-01-j3.557001397481e-03
9.999920358495e-01-j3.991019575882e-03
9.999899737285e-01-j4.477995307434e-03
9.999873776720e-01-j5.024390112820e-03
9.999841094305e-01-j5.637453822760e-03
9.999799949583e-01-j6.325320719062e-03
9.999748151446e-01-j7.097117387113e-03
9.999682941455e-01-j7.963083700807e-03
9.999600846940e-01-j8.934708530886e-03
9.999497496069e-01-j1.002488195719e-02
9.999367385030e-01-j1.124806597589e-02
9.999203584936e-01-j1.262048592631e-02
9.998997372834e-01-j1.416034512034e-02
9.998737767176e-01-j1.588806544143e-02
9.998410943012e-01-j1.782655699175e-02
9.997999495761e-01-j2.000152020410e-02
9.997481514349e-01-j2.244178419964e-02
9.996829414368e-01-j2.517968555938e-02
9.996008469097e-01-j2.825149208078e-02
9.994974960174e-01-j3.169787650035e-02
9.993673849422e-01-j3.556444556107e-02
9.992035847842e-01-j3.990233016359e-02
9.989973725676e-01-j4.476884262224e-02
9.987377667029e-01-j5.022820719023e-02
9.984109421607e-01-j5.635236993598e-02
9.979994942084e-01-j6.322189361489e-02
9.974815114844e-01-j7.092694220301e-02
9.968294090222e-01-j7.956835797345e-02
9.960084590200e-01-j8.925883101915e-02
9.949749410084e-01-j1.001241564071e-01
9.936738126867e-01-j1.123045669027e-01
9.920357769684e-01-j1.259561183027e-01
9.899735882026e-01-j1.412520882406e-01
9.873773992135e-01-j1.583843255525e-01
9.841088981199e-01-j1.775644525119e-01
9.799939163423e-01-j1.990247714695e-01
9.748131017565e-01-j2.230186531610e-01
9.682901363129e-01-j2.498200746126e-01
9.600768246044e-01-j2.797218117505e-01
9.497341718893e-01-j3.130315448389e-01
9.367082807692e-01-j3.500647503645e-01
9.202994856951e-01-j3.911326337090e-01
8.996225596214e-01-j4.365223187177e-01
8.735550114970e-01-j4.864646939551e-01
8.406694544347e-01-j5.410820102114e-01
7.991450648030e-01-j6.003011256633e-01
7.466535848594e-01-j6.637065041661e-01
6.802215159565e-01-j7.302848632989e-01
5.960949930694e-01-j7.979736678365e-01
4.897118271645e-01-j8.628646641982e-01
3.560969268917e-01-j9.178612856769e-01
1.914790550060e-01-j9.507218312516e-01
-2.332905808132e-03-j9.423430127431e-01
-2.095263879018e-01-j8.689694887068e-01
-3.922324961411e-01-j7.155549724750e-01
-4.999844070926e-01-j4.997480373577e-01
-5.066447443802e-01-j2.774211208139e-01
-4.354748622915e-01-j1.048198118520e-01
-3.342755248092e-01-j7.179790293225e-04
-2.387344195332e-01+j4.814770135836e-02
-1.631634065869e-01+j6.334118797449e-02
-1.085881977308e-01+j6.165272355966e-02
-7.109316898163e-02+j5.312260867577e-02
-4.606100019668e-02+j4.291307480421e-02
-2.963601540661e-02+j3.334607470433e-02
-1.897648427948e-02+j2.526639022174e-02
-1.210911464269e-02+j1.881646473147e-02
-7.707313377458e-03+j1.384203817697e-02
-4.896211819040e-03+j1.009179069638e-02
-3.105843138742e-03+j7.308628022400e-03
-1.967910165829e-03+j5.266356298051e-03
-1.245793770435e-03+j3.780135844543e-03
-7.881072583310e-04+j2.705272165905e-03
-4.982956449771e-04+j1.931569028307e-03
-3.149209555366e-04+j1.376657500198e-03
-1.989610198255e-04+j9.797782635963e-04
-1.256658535733e-04+j6.965422868346e-04
-7.935490456324e-05+j4.947518688994e-04
-5.010218921205e-05+j3.511784189023e-04
-3.162869654162e-05+j2.491331437661e-04
-1.996455357822e-05+j1.766639715057e-04
-1.260088892635e-05+j1.252322737796e-04
-7.952681864548e-06+j8.874974890996e-05
-5.018834688345e-06+j6.288179572714e-05
-3.167187657525e-06+j4.454602307517e-05
-1.998619451746e-06+j3.155254510665e-05
-1.261173498169e-06+j2.234670011357e-05
-7.958117735604e-07+j1.582543063851e-05
-5.021559067141e-07+j1.120645898987e-05
-3.168553078189e-07+j7.935202984461e-06
-1.999303782166e-07+j5.618614382642e-06
-1.261516475540e-07+j3.978192216040e-06
-7.959836693502e-08+j2.816635617149e-06
-5.022420586629e-08+j1.994189069791e-06
-3.168984860681e-08+j1.411869833390e-06
-1.999520186018e-08+j9.995790816301e-07
</dep>
<dep ac.v(ns21) frequency>
9.999999799950e-01-j2.000252032538e-04
9.999999748151e-01-j2.244319690857e-04
9.999999682941e-01-j2.518168106391e-04
9.999999600847e-01-j2.825431080607e-04
9.999999497496e-01-j3.170185805610e-04
9.999999367385e-01-j3.557006965892e-04
9.999999203585e-01-j3.991027441470e-04
9.999998997373e-01-j4.478006417874e-04
9.999998737767e-01-j5.024405806733e-04
9.999998410943e-01-j5.637475991002e-04
9.999997999496e-01-j6.325352032535e-04
9.999997481514e-01-j7.097161618570e-04
9.999996829415e-01-j7.963146179400e-04
9.999996008469e-01-j8.934796784245e-04
9.999994974961e-01-j1.002500661838e-03
9.999993673850e-01-j1.124824206450e-03
9.999992035849e-01-j1.262073465808e-03
9.999989973729e-01-j1.416069646331e-03
9.999987377672e-01-j1.588856172657e-03
9.999984109431e-01-j1.782725801316e-03
9.999979994958e-01-j2.000251042319e-03
9.999974815145e-01-j2.244318292136e-03
9.999968294146e-01-j2.518166130644e-03
9.999960084694e-01-j2.825428289791e-03
9.999949749607e-01-j3.170181863477e-03
9.999936738504e-01-j3.557001397481e-03
9.999920358495e-01-j3.991019575882e-03
9.999899737285e-01-j4.477995307434e-03
9.999873776720e-01-j5.024390112820e-03
9.999841094305e-01-j5.637453822760e-03
9.999799949583e-01-j6.325320719062e-03
9.999748151446e-01-j7.097117387113e-03
9.999682941455e-01-j7.963083700807e-03
9.999600846940e-01-j8.934708530886e-03
9.999497496069e-01-j1.002488195719e-02
9.999367385030e-01-j1.124806597589e-02
9.999203584936e-01-j1.262048592631e-02
9.998997372834e-01-j1.416034512034e-02
9.998737767176e-01-j1.588806544143e-02
9.998410943012e-01-j1.782655699175e-02
9.997999495761e-01-j2.000152020410e-02
9.997481514349e-01-j2.244178419964e-02
9.996829414368e-01-j2.517968555938e-02
9.996008469097e-01-j2.825149208078e-02
9.994974960174e-01-j3.169787650035e-02
9.993673849422e-01-j3.556444556107e-02
9.992035847842e-01-j3.990233016359e-02
9.989973725676e-01-j4.476884262224e-02
9.987377667029e-01-j5.022820719023e-02
9.984109421607e-01-j5.635236993598e-02
9.979994942084e-01-j6.322189361489e-02
9.974815114844e-01-j7.092694220301e-02
9.968294090222e-01-j7.956835797345e-02
9.960084590200e-01-j8.925883101915e-02
9.949749410084e-01-j1.001241564071e-01
9.936738126867e-01-j1.123045669027e-01
9.920357769684e-01-j1.259561183027e-01
9.899735882026e-01-j1.412520882406e-01
9.873773992135e-01-j1.583843255525e-01
9.841088981199e-01-j1.775644525119e-01
9.799939163423e-01-j1.990247714695e-01
9.748131017565e-01-j2.230186531610e-01
9.682901363129e-01-j2.498200746126e-01
9.600768246044e-01-j2.797218117505e-01
9.497341718893e-01-j3.130315448389e-01
9.367082807692e-01-j3.500647503645e-01
9.202994856951e-01-j3.911326337090e-01
8.996225596214e-01-j4.365223187177e-01
8.735550114970e-01-j4.864646939551e-01
8.406694544347e-01-j5.410820102114e-01
7.991450648030e-01-j6.003011256633e-01
7.466535848594e-01-j6.637065041661e-01
6.802215159565e-01-j7.302848632989e-01
5.960949930694e-01-j7.979736678365e-01
4.897118271645e-01-j8.628646641982e-01
3.560969268917e-01-j9.178612856769e-01
1.914790550060e-01-j9.507218312516e-01
-2.332905808132e-03-j9.423430127431e-01
-2.095263879018e-01-j8.689694887068e-01
-3.922324961411e-01-j7.155549724750e-01
-4.999844070926e-01-j4.997480373577e-01
-5.066447443802e-01-j2.774211208139e-01
-4.354748622915e-01-j1.048198118520e-01
-3.342755248092e-01-j7.179790293225e-04
-2.387344195332e-01+j4.814770135836e-02
-1.631634065869e-01+j6.334118797449e-02
-1.085881977308e-01+j6.165272355966e-02
-7.109316898163e-02+j5.312260867577e-02
-4.606100019668e-02+j4.291307480421e-02
-2.963601540661e-02+j3.334607470433e-02
-1.897648427948e-02+j2.526639022174e-02
-1.210911464269e-02+j1.881646473147e-02
-7.707313377458e-03+j1.384203817697e-02
-4.896211819040e-03+j1.009179069638e-02
-3.105843138742e-03+j7.308628022400e-03
-1.967910165829e-03+j5.266356298051e-03
-1.245793770435e-03+j3.780135844543e-03
-7.881072583310e-04+j2.705272165905e-03
-4.982956449771e-04+j1.931569028307e-03
-3.149209555366e-04+j1.376657500198e-03
-1.989610198255e-04+j9.797782635963e-04
-1.256658535733e-04+j6.965422868346e-04
-7.935490456324e-05+j4.947518688994e-04
-5.010218921205e-05+j3.511784189023e-04
-3.162869654162e-05+j2.491331437661e-04
-1.996455357822e-05+j1.766639715057e-04
-1.260088892635e-05+j1.252322737796e-04
-7.952681864548e-06+j8.874974890996e-05
-5.018834688345e-06+j6.288179572714e-05
-3.167187657525e-06+j4.454602307517e-05
-1.998619451746e-06+j3.155254510665e-05
-1.261173498169e-06+j2.234670011357e-05
-7.958117735604e-07+j1.582543063851e-05
-5.021559067141e-07+j1.120645898987e-05
-3.168553078189e-07+j7.935202984461e-06
-1.999303782166e-07+j5.618614382642e-06
-1.261516475540e-07+j3.978192216040e-06
-7.959836693502e-08+j2.816635617149e-06
-5.022420586629e-08+j1.994189069791e-06
-3.168984860681e-08+j1.411869833390e-06
-1.999520186018e-08+j9.995790816301e-07
</dep>
<dep ac.v(ns22) frequency>
6.284306408588e-12+j3.141692612836e-08
7.911449273479e-12+j3.525066129411e-08
9.960032798517e-12+j3.955230270023e-08
1.253908088472e-11+j4.437899296531e-08
1.578581709794e-11+j4.979486755075e-08
1.987343623000e-11+j5.587191642740e-08
2.501998608295e-11+j6.269095435157e-08
3.149946969927e-11+j7.034271443470e-08
3.965716643961e-11+j7.892908207021e-08
4.992806168502e-11+j8.856448920340e-08
6.285971743125e-11+j9.937749254161e-08
7.914247035501e-11+j1.115125638463e-07
9.964473690616e-11+j1.251321262376e-07
1.254614190316e-10+j1.404188778968e-07
1.579727459955e-10+j1.575784542990e-07
1.989168829652e-10+j1.768424929645e-07
2.504865204145e-10+j1.984721818961e-07
3.154472238975e-10+j2.227623959797e-07
3.972886464254e-10+j2.500465570369e-07
5.004161529598e-10+j2.807023961392e-07
6.303984001477e-10+j3.151588558485e-07
7.942762003665e-10+j3.539044516865e-07
1.000968197218e-09+j3.974975254103e-07
1.261781790163e-09+j4.465789804724e-07
1.591085485586e-09+j5.018883103875e-07
2.007171762131e-09+j5.642840391366e-07
2.533400156324e-09+j6.347701251791e-07
3.199696285705e-09+j7.145304879268e-07
4.044558021832e-09+j8.049746692291e-07
5.117755108586e-09+j9.077988437486e-07
6.484014214436e-09+j1.025068083849e-06
8.228095316198e-09+j1.159328168236e-06
1.046190134524e-08+j1.313758583751e-06
1.333454036079e-08+j1.492383107841e-06
1.704677554670e-08+j1.700361042477e-06
2.187202863269e-08+j1.944391598330e-06
2.818728850329e-08+j2.233277230109e-06
3.651909219471e-08+j2.578710492397e-06
4.761261940267e-08+j2.996375466403e-06
6.253644668774e-08+j3.507492168105e-06
8.284256880486e-08+j4.140985049576e-06
1.108124720872e-07+j4.936531031376e-06
1.498376116515e-07+j5.948847297137e-06
2.050104348505e-07+j7.253726771964e-06
2.840459458753e-07+j8.956537244989e-06
3.987231484981e-07+j1.120419294645e-05
5.671453453537e-07+j1.420201926619e-05
8.172916516891e-07+j1.823750994252e-05
1.192606395417e-06+j2.371378782235e-05
1.760806964457e-06+j3.119671705682e-05
2.627777070607e-06+j4.148120274734e-05
3.959498026784e-06+j5.568442616957e-05
6.016687279731e-06+j7.537683292866e-05
9.209526823595e-06+j1.027659282004e-04
1.418415076038e-05+j1.409537425583e-04
2.195932850091e-05+j1.942967261010e-04
3.414245356903e-05+j2.689074251442e-04
5.327076224138e-05+j3.733512778441e-04
8.335015317695e-05+j5.196098615236e-04
1.307054938322e-04+j7.244042244600e-04
2.053212970863e-04+j1.010997880086e-03
3.229530705431e-04+j1.411625798809e-03
5.084471840888e-04+j1.970715900044e-03
8.009503667006e-04+j2.749066581241e-03
1.262062514717e-03+j3.829083416829e-03
1.988550564565e-03+j5.320992126790e-03
3.132080836257e-03+j7.369501121472e-03
4.929644510483e-03+j1.015943337232e-02
7.750037971070e-03+j1.391690824236e-02
1.216390253321e-02+j1.889883809369e-02
1.904702050456e-02+j2.535616174066e-02
2.972721347542e-02+j3.344238811881e-02
4.617937755690e-02+j4.301363452309e-02
7.124717258046e-02+j5.322241141203e-02
1.087880888796e-01+j6.174179565979e-02
1.634196029126e-01+j6.340088562306e-02
2.390517493082e-01+j4.814594716396e-02
3.346393843507e-01-j8.284479778852e-04
4.358294966403e-01-j1.050874413416e-01
5.068864143348e-01-j2.778505233034e-01
5.000154659373e-01-j5.002519621600e-01
3.920521277430e-01-j7.159914481685e-01
2.092306908316e-01-j8.692508092430e-01
