<Qucs Dataset 24.4.1>
<indep time 83>
0.000000000000e+00
1.000000000000e-11
2.000000000000e-11
4.000000000000e-11
8.000000000000e-11
1.600000000000e-10
3.200000000000e-10
6.400000000000e-10
1.182084034088e-09
1.947074036221e-09
2.971597398559e-09
4.216335723302e-09
5.813228848236e-09
7.168321744359e-09
8.437069646247e-09
9.774054634380e-09
1.137577393458e-08
1.263276727203e-08
1.394600712626e-08
1.529888603515e-08
1.663421328860e-08
1.786350138852e-08
1.916584734782e-08
2.067168064140e-08
2.200177180252e-08
2.339348803828e-08
2.465846274502e-08
2.640395801936e-08
2.768967154713e-08
2.902714969215e-08
3.034674013318e-08
3.166324891397e-08
3.290374151349e-08
3.420433818898e-08
3.574356546905e-08
3.707292082250e-08
3.846044104470e-08
3.973053299989e-08
4.138408878532e-08
4.265128186285e-08
4.397333563735e-08
4.531311413139e-08
4.664169953261e-08
4.787456169769e-08
4.917605264730e-08
5.069146030477e-08
5.202146899793e-08
5.341215113352e-08
5.467850702738e-08
5.639286193579e-08
5.767287838398e-08
5.900446651201e-08
6.033085691234e-08
6.165202553292e-08
6.288916554836e-08
6.418987460284e-08
6.571758702970e-08
6.704737488890e-08
6.843658395973e-08
6.970477470175e-08
7.138784161751e-08
7.266131616128e-08
7.398793532827e-08
7.532117730680e-08
7.664621490860e-08
7.788105266049e-08
7.918213303496e-08
8.070307501250e-08
8.203300540712e-08
8.342305270468e-08
8.469021976492e-08
8.639046919794e-08
8.766755113602e-08
8.899688407079e-08
9.032635448171e-08
9.164928040219e-08
9.288535630228e-08
9.418622483710e-08
9.571077231147e-08
9.704063182279e-08
9.843023902576e-08
9.969794852290e-08
1.000000000000e-07
</indep>
<dep tran.v(in) time>
0.000000000000e+00
6.283143965559e-03
1.256603988335e-02
2.513009544334e-02
5.024431817977e-02
1.003617148512e-01
1.997099805144e-01
3.913736668372e-01
6.762979560115e-01
9.402564308719e-01
9.564194639710e-01
4.727340109956e-01
-4.890207487925e-01
-9.783632824887e-01
-8.316198076713e-01
-1.414892719290e-01
7.607216876146e-01
9.965225576525e-01
6.148874609182e-01
-1.866937415789e-01
-8.556505424995e-01
-9.740311220343e-01
-5.004457577265e-01
4.096126290768e-01
9.513999420163e-01
8.465132334444e-01
2.129509402771e-01
-7.720960662113e-01
-9.929071618677e-01
-5.738996600708e-01
2.161438786059e-01
8.649496891013e-01
9.679958495359e-01
4.793632817344e-01
-4.503845177578e-01
-9.642118754845e-01
-8.233753663917e-01
-1.685033490754e-01
7.641023184163e-01
9.954858451550e-01
6.012561670119e-01
-1.954687632301e-01
-8.580755103124e-01
-9.724341728511e-01
-4.948840491289e-01
4.209182015940e-01
9.551383069403e-01
8.402124365068e-01
2.006290576548e-01
-7.676466703424e-01
-9.941063536614e-01
-5.855125215871e-01
2.063894604696e-01
8.613891765116e-01
9.702536582674e-01
4.873189280038e-01
-4.357516639443e-01
-9.598322100376e-01
-8.317892413874e-01
-1.844335810250e-01
7.656213101922e-01
9.948676808000e-01
5.939010239806e-01
-2.004347477914e-01
-8.595289697341e-01
-9.714750985239e-01
-4.915606570169e-01
4.275267006557e-01
9.572599244884e-01
8.364784769476e-01
1.934139949037e-01
-7.666823132801e-01
-9.944636523557e-01
-5.893680150850e-01
2.036205854333e-01
8.605117827570e-01
9.708303030480e-01
4.893201357888e-01
-4.318937622351e-01
-9.586348621319e-01
-8.339955756485e-01
-1.886473082477e-01
-2.449293598295e-15
</dep>
<dep tran.v(out) time>
0.000000000000e+00
6.220934619365e-05
1.860096485418e-04
5.555553518052e-04
2.011698546305e-03
7.649492236243e-03
2.874376711722e-02
1.023432309954e-01
2.863695932567e-01
5.751620271322e-01
8.279803411576e-01
7.409731328531e-01
7.581075528375e-02
-5.780915289355e-01
-8.318606919664e-01
-5.551623289844e-01
2.139883778777e-01
7.270015175719e-01
7.893915445740e-01
3.251313868077e-01
-3.525185592885e-01
-7.806352569038e-01
-7.464064571393e-01
-1.442249894727e-01
5.145964818495e-01
8.300239306990e-01
5.973350916031e-01
-2.199870807520e-01
-7.384765294475e-01
-7.744849882588e-01
-3.009582406263e-01
3.671230623520e-01
7.877160587010e-01
7.372490321721e-01
1.085856079478e-01
-5.429516347018e-01
-8.303597201266e-01
-5.705843879654e-01
2.154559852474e-01
7.307880253792e-01
7.845790479195e-01
3.178837157005e-01
-3.563951742072e-01
-7.826409615699e-01
-7.440223882054e-01
-1.344469858944e-01
5.225478271024e-01
8.302635928458e-01
5.900134017118e-01
-2.163323147899e-01
-7.350050205033e-01
-7.788141039779e-01
-3.088879301446e-01
3.616295787427e-01
7.852213273553e-01
7.407426660812e-01
1.215018273433e-01
-5.328863481202e-01
-8.304058146615e-01
-5.802791782856e-01
2.156540153291e-01
7.327431493407e-01
7.819068181210e-01
3.137871196610e-01
-3.587018910147e-01
-7.837976081483e-01
-7.425867780801e-01
-1.286968341199e-01
5.271683722966e-01
8.303509490251e-01
5.856922243782e-01
-2.159685641264e-01
-7.339625081997e-01
-7.802416072286e-01
-3.111650653791e-01
3.602507311708e-01
7.845557740359e-01
7.416143248300e-01
1.248817443222e-01
-5.302083759707e-01
-8.303875268365e-01
-5.828238395614e-01
-4.546319167989e-01
</dep>
<indep frequency 301>
1.000000000000e+03
1.047128548051e+03
1.096478196143e+03
1.148153621497e+03
1.202264434617e+03
1.258925411794e+03
1.318256738556e+03
1.380384264603e+03
1.445439770746e+03
1.513561248436e+03
1.584893192461e+03
1.659586907438e+03
1.737800828749e+03
1.819700858610e+03
1.905460717963e+03
1.995262314969e+03
2.089296130854e+03
2.187761623950e+03
2.290867652768e+03
2.398832919019e+03
2.511886431510e+03
2.630267991895e+03
2.754228703338e+03
2.884031503127e+03
3.019951720402e+03
3.162277660168e+03
3.311311214826e+03
3.467368504525e+03
3.630780547701e+03
3.801893963206e+03
3.981071705535e+03
4.168693834703e+03
4.365158322402e+03
4.570881896149e+03
4.786300923226e+03
5.011872336273e+03
5.248074602498e+03
5.495408738576e+03
5.754399373372e+03
6.025595860744e+03
6.309573444802e+03
6.606934480076e+03
6.918309709189e+03
7.244359600750e+03
7.585775750292e+03
7.943282347243e+03
8.317637711027e+03
8.709635899561e+03
9.120108393559e+03
9.549925860214e+03
1.000000000000e+04
1.047128548051e+04
1.096478196143e+04
1.148153621497e+04
1.202264434617e+04
1.258925411794e+04
1.318256738556e+04
1.380384264603e+04
1.445439770746e+04
1.513561248436e+04
1.584893192461e+04
1.659586907438e+04
1.737800828749e+04
1.819700858610e+04
1.905460717963e+04
1.995262314969e+04
2.089296130854e+04
2.187761623950e+04
2.290867652768e+04
2.398832919020e+04
2.511886431510e+04
2.630267991895e+04
2.754228703338e+04
2.884031503127e+04
3.019951720402e+04
3.162277660168e+04
3.311311214826e+04
3.467368504525e+04
3.630780547701e+04
3.801893963206e+04
3.981071705535e+04
4.168693834703e+04
4.365158322402e+04
4.570881896149e+04
4.786300923226e+04
5.011872336273e+04
5.248074602498e+04
5.495408738576e+04
5.754399373372e+04
6.025595860744e+04
6.309573444802e+04
6.606934480076e+04
6.918309709189e+04
7.244359600750e+04
7.585775750292e+04
7.943282347243e+04
8.317637711027e+04
8.709635899561e+04
9.120108393559e+04
9.549925860214e+04
1.000000000000e+05
1.047128548051e+05
1.096478196143e+05
1.148153621497e+05
1.202264434617e+05
1.258925411794e+05
1.318256738556e+05
1.380384264603e+05
1.445439770746e+05
1.513561248436e+05
1.584893192461e+05
1.659586907438e+05
1.737800828749e+05
1.819700858610e+05
1.905460717963e+05
1.995262314969e+05
2.089296130854e+05
2.187761623950e+05
2.290867652768e+05
2.398832919020e+05
2.511886431510e+05
2.630267991895e+05
2.754228703338e+05
2.884031503127e+05
3.019951720402e+05
3.162277660168e+05
3.311311214826e+05
3.467368504525e+05
3.630780547701e+05
3.801893963206e+05
3.981071705535e+05
4.168693834703e+05
4.365158322402e+05
4.570881896149e+05
4.786300923226e+05
5.011872336273e+05
5.248074602498e+05
5.495408738576e+05
5.754399373372e+05
6.025595860744e+05
6.309573444802e+05
6.606934480076e+05
6.918309709189e+05
7.244359600750e+05
7.585775750292e+05
7.943282347243e+05
8.317637711027e+05
8.709635899561e+05
9.120108393559e+05
9.549925860214e+05
1.000000000000e+06
1.047128548051e+06
1.096478196143e+06
1.148153621497e+06
1.202264434617e+06
1.258925411794e+06
1.318256738556e+06
1.380384264603e+06
1.445439770746e+06
1.513561248436e+06
1.584893192461e+06
1.659586907438e+06
1.737800828749e+06
1.819700858610e+06
1.905460717963e+06
1.995262314969e+06
2.089296130854e+06
2.187761623950e+06
2.290867652768e+06
2.398832919020e+06
2.511886431510e+06
2.630267991895e+06
2.754228703338e+06
2.884031503127e+06
3.019951720402e+06
3.162277660168e+06
3.311311214826e+06
3.467368504525e+06
3.630780547701e+06
3.801893963206e+06
3.981071705535e+06
4.168693834703e+06
4.365158322402e+06
4.570881896149e+06
4.786300923226e+06
5.011872336273e+06
5.248074602498e+06
5.495408738576e+06
5.754399373372e+06
6.025595860744e+06
6.309573444802e+06
6.606934480076e+06
6.918309709189e+06
7.244359600750e+06
7.585775750292e+06
7.943282347243e+06
8.317637711027e+06
8.709635899561e+06
9.120108393559e+06
9.549925860214e+06
1.000000000000e+07
1.047128548051e+07
1.096478196143e+07
1.148153621497e+07
1.202264434617e+07
1.258925411794e+07
1.318256738556e+07
1.380384264603e+07
1.445439770746e+07
1.513561248436e+07
1.584893192461e+07
1.659586907438e+07
1.737800828749e+07
1.819700858610e+07
1.905460717963e+07
1.995262314969e+07
2.089296130854e+07
2.187761623950e+07
2.290867652768e+07
2.398832919020e+07
2.511886431510e+07
2.630267991895e+07
2.754228703338e+07
2.884031503127e+07
3.019951720402e+07
3.162277660168e+07
3.311311214826e+07
3.467368504525e+07
3.630780547701e+07
3.801893963206e+07
3.981071705535e+07
4.168693834703e+07
4.365158322402e+07
4.570881896149e+07
4.786300923226e+07
5.011872336273e+07
5.248074602498e+07
5.495408738576e+07
5.754399373372e+07
6.025595860744e+07
6.309573444802e+07
6.606934480076e+07
6.918309709189e+07
7.244359600750e+07
7.585775750292e+07
7.943282347243e+07
8.317637711027e+07
8.709635899561e+07
9.120108393559e+07
9.549925860215e+07
1.000000000000e+08
1.047128548051e+08
1.096478196143e+08
1.148153621497e+08
1.202264434617e+08
1.258925411794e+08
1.318256738556e+08
1.380384264603e+08
1.445439770746e+08
1.513561248436e+08
1.584893192461e+08
1.659586907438e+08
1.737800828749e+08
1.819700858610e+08
1.905460717963e+08
1.995262314969e+08
2.089296130854e+08
2.187761623950e+08
2.290867652768e+08
2.398832919020e+08
2.511886431510e+08
2.630267991895e+08
2.754228703338e+08
2.884031503127e+08
3.019951720402e+08
3.162277660168e+08
3.311311214826e+08
3.467368504525e+08
3.630780547701e+08
3.801893963206e+08
3.981071705535e+08
4.168693834703e+08
4.365158322402e+08
4.570881896149e+08
4.786300923226e+08
5.011872336273e+08
5.248074602498e+08
5.495408738576e+08
5.754399373372e+08
6.025595860744e+08
6.309573444802e+08
6.606934480076e+08
6.918309709190e+08
7.244359600750e+08
7.585775750292e+08
7.943282347243e+08
8.317637711027e+08
8.709635899561e+08
9.120108393559e+08
9.549925860215e+08
1.000000000000e+09
</indep>
<dep ac.v(in) frequency>
1.000000000000e+00+j0.000000000000e+00
1.000000000000e+00+j0.000000000000e+00
1.000000000000e+00+j0.000000000000e+00
1.000000000000e+00+j0.000000000000e+00
1.000000000000e+00+j0.000000000000e+00
1.000000000000e+00+j0.000000000000e+00
1.000000000000e+00+j0.000000000000e+00
1.000000000000e+00+j0.000000000000e+00
1.000000000000e+00+j0.000000000000e+00
1.000000000000e+00+j0.000000000000e+00
1.000000000000e+00+j0.000000000000e+00
1.000000000000e+00+j0.000000000000e+00
1.000000000000e+00+j0.000000000000e+00
1.000000000000e+00+j0.000000000000e+00
1.000000000000e+00+j0.000000000000e+00
1.000000000000e+00+j0.000000000000e+00
1.000000000000e+00+j0.000000000000e+00
1.000000000000e+00+j0.000000000000e+00
1.000000000000e+00+j0.000000000000e+00
1.000000000000e+00+j0.000000000000e+00
1.000000000000e+00+j0.000000000000e+00
1.000000000000e+00+j0.000000000000e+00
1.000000000000e+00+j0.000000000000e+00
1.000000000000e+00+j0.000000000000e+00
1.000000000000e+00+j0.000000000000e+00
1.000000000000e+00+j0.000000000000e+00
1.000000000000e+00+j0.000000000000e+00
1.000000000000e+00+j0.000000000000e+00
1.000000000000e+00+j0.000000000000e+00
1.000000000000e+00+j0.000000000000e+00
1.000000000000e+00+j0.000000000000e+00
1.000000000000e+00+j0.000000000000e+00
1.000000000000e+00+j0.000000000000e+00
1.000000000000e+00+j0.000000000000e+00
1.000000000000e+00+j0.000000000000e+00
1.000000000000e+00+j0.000000000000e+00
1.000000000000e+00+j0.000000000000e+00
1.000000000000e+00+j0.000000000000e+00
1.000000000000e+00+j0.000000000000e+00
1.000000000000e+00+j0.000000000000e+00
1.000000000000e+00+j0.000000000000e+00
1.000000000000e+00+j0.000000000000e+00
1.000000000000e+00+j0.000000000000e+00
1.000000000000e+00+j0.000000000000e+00
1.000000000000e+00+j0.000000000000e+00
1.000000000000e+00+j0.000000000000e+00
1.000000000000e+00+j0.000000000000e+00
1.000000000000e+00+j0.000000000000e+00
1.000000000000e+00+j0.000000000000e+00
1.000000000000e+00+j0.000000000000e+00
1.000000000000e+00+j0.000000000000e+00
1.000000000000e+00+j0.000000000000e+00
1.000000000000e+00+j0.000000000000e+00
1.000000000000e+00+j0.000000000000e+00
1.000000000000e+00+j0.000000000000e+00
1.000000000000e+00+j0.000000000000e+00
1.000000000000e+00+j0.000000000000e+00
1.000000000000e+00+j0.000000000000e+00
1.000000000000e+00+j0.000000000000e+00
1.000000000000e+00+j0.000000000000e+00
1.000000000000e+00+j0.000000000000e+00
1.000000000000e+00+j0.000000000000e+00
1.000000000000e+00+j0.000000000000e+00
1.000000000000e+00+j0.000000000000e+00
1.000000000000e+00+j0.000000000000e+00
1.000000000000e+00+j0.000000000000e+00
1.000000000000e+00+j0.000000000000e+00
1.000000000000e+00+j0.000000000000e+00
1.000000000000e+00+j0.000000000000e+00
1.000000000000e+00+j0.000000000000e+00
1.000000000000e+00+j0.000000000000e+00
1.000000000000e+00+j0.000000000000e+00
1.000000000000e+00+j0.000000000000e+00
1.000000000000e+00+j0.000000000000e+00
1.000000000000e+00+j0.000000000000e+00
1.000000000000e+00+j0.000000000000e+00
1.000000000000e+00+j0.000000000000e+00
1.000000000000e+00+j0.000000000000e+00
1.000000000000e+00+j0.000000000000e+00
1.000000000000e+00+j0.000000000000e+00
1.000000000000e+00+j0.000000000000e+00
1.000000000000e+00+j0.000000000000e+00
1.000000000000e+00+j0.000000000000e+00
1.000000000000e+00+j0.000000000000e+00
1.000000000000e+00+j0.000000000000e+00
1.000000000000e+00+j0.000000000000e+00
1.000000000000e+00+j0.000000000000e+00
1.000000000000e+00+j0.000000000000e+00
1.000000000000e+00+j0.000000000000e+00
1.000000000000e+00+j0.000000000000e+00
1.000000000000e+00+j0.000000000000e+00
1.000000000000e+00+j0.000000000000e+00
1.000000000000e+00+j0.000000000000e+00
1.000000000000e+00+j0.000000000000e+00
1.000000000000e+00+j0.000000000000e+00
1.000000000000e+00+j0.000000000000e+00
1.000000000000e+00+j0.000000000000e+00
1.000000000000e+00+j0.000000000000e+00
1.000000000000e+00+j0.000000000000e+00
1.000000000000e+00+j0.000000000000e+00
1.000000000000e+00+j0.000000000000e+00
1.000000000000e+00+j0.000000000000e+00
1.000000000000e+00+j0.000000000000e+00
1.000000000000e+00+j0.000000000000e+00
1.000000000000e+00+j0.000000000000e+00
1.000000000000e+00+j0.000000000000e+00
1.000000000000e+00+j0.000000000000e+00
1.000000000000e+00+j0.000000000000e+00
1.000000000000e+00+j0.000000000000e+00
1.000000000000e+00+j0.000000000000e+00
1.000000000000e+00+j0.000000000000e+00
1.000000000000e+00+j0.000000000000e+00
1.000000000000e+00+j0.000000000000e+00
1.000000000000e+00+j0.000000000000e+00
1.000000000000e+00+j0.000000000000e+00
1.000000000000e+00+j0.000000000000e+00
1.000000000000e+00+j0.000000000000e+00
1.000000000000e+00+j0.000000000000e+00
1.000000000000e+00+j0.000000000000e+00
1.000000000000e+00+j0.000000000000e+00
1.000000000000e+00+j0.000000000000e+00
1.000000000000e+00+j0.000000000000e+00
1.000000000000e+00+j0.000000000000e+00
1.000000000000e+00+j0.000000000000e+00
1.000000000000e+00+j0.000000000000e+00
1.000000000000e+00+j0.000000000000e+00
1.000000000000e+00+j0.000000000000e+00
1.000000000000e+00+j0.000000000000e+00
1.000000000000e+00+j0.000000000000e+00
1.000000000000e+00+j0.000000000000e+00
1.000000000000e+00+j0.000000000000e+00
1.000000000000e+00+j0.000000000000e+00
1.000000000000e+00+j0.000000000000e+00
1.000000000000e+00+j0.000000000000e+00
1.000000000000e+00+j0.000000000000e+00
1.000000000000e+00+j0.000000000000e+00
1.000000000000e+00+j0.000000000000e+00
1.000000000000e+00+j0.000000000000e+00
1.000000000000e+00+j0.000000000000e+00
1.000000000000e+00+j0.000000000000e+00
1.000000000000e+00+j0.000000000000e+00
1.000000000000e+00+j0.000000000000e+00
1.000000000000e+00+j0.000000000000e+00
1.000000000000e+00+j0.000000000000e+00
1.000000000000e+00+j0.000000000000e+00
1.000000000000e+00+j0.000000000000e+00
1.000000000000e+00+j0.000000000000e+00
1.000000000000e+00+j0.000000000000e+00
1.000000000000e+00+j0.000000000000e+00
1.000000000000e+00+j0.000000000000e+00
1.000000000000e+00+j0.000000000000e+00
1.000000000000e+00+j0.000000000000e+00
1.000000000000e+00+j0.000000000000e+00
1.000000000000e+00+j0.000000000000e+00
1.000000000000e+00+j0.000000000000e+00
1.000000000000e+00+j0.000000000000e+00
1.000000000000e+00+j0.000000000000e+00
1.000000000000e+00+j0.000000000000e+00
1.000000000000e+00+j0.000000000000e+00
1.000000000000e+00+j0.000000000000e+00
1.000000000000e+00+j0.000000000000e+00
1.000000000000e+00+j0.000000000000e+00
1.000000000000e+00+j0.000000000000e+00
1.000000000000e+00+j0.000000000000e+00
1.000000000000e+00+j0.000000000000e+00
1.000000000000e+00+j0.000000000000e+00
1.000000000000e+00+j0.000000000000e+00
1.000000000000e+00+j0.000000000000e+00
1.000000000000e+00+j0.000000000000e+00
1.000000000000e+00+j0.000000000000e+00
1.000000000000e+00+j0.000000000000e+00
1.000000000000e+00+j0.000000000000e+00
1.000000000000e+00+j0.000000000000e+00
1.000000000000e+00+j0.000000000000e+00
1.000000000000e+00+j0.000000000000e+00
1.000000000000e+00+j0.000000000000e+00
1.000000000000e+00+j0.000000000000e+00
1.000000000000e+00+j0.000000000000e+00
1.000000000000e+00+j0.000000000000e+00
1.000000000000e+00+j0.000000000000e+00
1.000000000000e+00+j0.000000000000e+00
1.000000000000e+00+j0.000000000000e+00
1.000000000000e+00+j0.000000000000e+00
1.000000000000e+00+j0.000000000000e+00
1.000000000000e+00+j0.000000000000e+00
1.000000000000e+00+j0.000000000000e+00
1.000000000000e+00+j0.000000000000e+00
1.000000000000e+00+j0.000000000000e+00
1.000000000000e+00+j0.000000000000e+00
1.000000000000e+00+j0.000000000000e+00
1.000000000000e+00+j0.000000000000e+00
1.000000000000e+00+j0.000000000000e+00
1.000000000000e+00+j0.000000000000e+00
1.000000000000e+00+j0.000000000000e+00
1.000000000000e+00+j0.000000000000e+00
1.000000000000e+00+j0.000000000000e+00
1.000000000000e+00+j0.000000000000e+00
1.000000000000e+00+j0.000000000000e+00
1.000000000000e+00+j0.000000000000e+00
1.000000000000e+00+j0.000000000000e+00
1.000000000000e+00+j0.000000000000e+00
1.000000000000e+00+j0.000000000000e+00
1.000000000000e+00+j0.000000000000e+00
1.000000000000e+00+j0.000000000000e+00
1.000000000000e+00+j0.000000000000e+00
1.000000000000e+00+j0.000000000000e+00
1.000000000000e+00+j0.000000000000e+00
1.000000000000e+00+j0.000000000000e+00
1.000000000000e+00+j0.000000000000e+00
1.000000000000e+00+j0.000000000000e+00
1.000000000000e+00+j0.000000000000e+00
1.000000000000e+00+j0.000000000000e+00
1.000000000000e+00+j0.000000000000e+00
1.000000000000e+00+j0.000000000000e+00
1.000000000000e+00+j0.000000000000e+00
1.000000000000e+00+j0.000000000000e+00
1.000000000000e+00+j0.000000000000e+00
1.000000000000e+00+j0.000000000000e+00
1.000000000000e+00+j0.000000000000e+00
1.000000000000e+00+j0.000000000000e+00
1.000000000000e+00+j0.000000000000e+00
1.000000000000e+00+j0.000000000000e+00
1.000000000000e+00+j0.000000000000e+00
1.000000000000e+00+j0.000000000000e+00
1.000000000000e+00+j0.000000000000e+00
1.000000000000e+00+j0.000000000000e+00
1.000000000000e+00+j0.000000000000e+00
1.000000000000e+00+j0.000000000000e+00
1.000000000000e+00+j0.000000000000e+00
1.000000000000e+00+j0.000000000000e+00
1.000000000000e+00+j0.000000000000e+00
1.000000000000e+00+j0.000000000000e+00
1.000000000000e+00+j0.000000000000e+00
1.000000000000e+00+j0.000000000000e+00
1.000000000000e+00+j0.000000000000e+00
1.000000000000e+00+j0.000000000000e+00
1.000000000000e+00+j0.000000000000e+00
1.000000000000e+00+j0.000000000000e+00
