<Qucs Dataset 24.4.1>
<indep time 83>
0.000000000000e+00
5.000000000000e-12
1.000000000000e-11
2.000000000000e-11
4.000000000000e-11
8.000000000000e-11
1.600000000000e-10
3.200000000000e-10
6.400000000000e-10
1.090619681423e-09
1.677361010376e-09
2.338532111609e-09
3.140290608423e-09
3.834595493907e-09
4.460498679225e-09
5.135171809257e-09
5.947976203713e-09
6.577451342197e-09
7.235491090603e-09
7.908361600658e-09
8.570335531968e-09
9.180949566464e-09
9.831151183394e-09
1.057132271838e-08
1.123274423892e-08
1.186048488849e-08
1.252007014501e-08
1.339843715323e-08
1.405107398193e-08
1.472534731020e-08
1.537744791039e-08
1.603736210871e-08
1.664019952307e-08
1.728925991589e-08
1.801238959128e-08
1.867711626062e-08
1.929816942462e-08
1.995584148331e-08
2.077807392902e-08
2.143391849397e-08
2.211663432397e-08
2.276188468948e-08
2.344893029508e-08
2.405085484339e-08
2.469195849453e-08
2.539373778481e-08
2.606859801182e-08
2.667331323122e-08
2.732678638801e-08
2.805685475012e-08
2.871714402003e-08
2.934414309733e-08
3.000281018858e-08
3.086643498964e-08
3.152021948965e-08
3.219700029849e-08
3.284732535239e-08
3.351222087671e-08
3.410639670025e-08
3.475604240296e-08
3.546941206628e-08
3.613752714236e-08
3.675321626034e-08
3.740943419605e-08
3.819583752054e-08
3.885344798688e-08
3.954194483724e-08
4.018126974537e-08
4.093935463530e-08
4.155837091672e-08
4.220771524019e-08
4.289254916431e-08
4.356118988966e-08
4.416655577450e-08
4.481827714623e-08
4.554650855524e-08
4.620772960361e-08
4.683338049861e-08
4.749181203062e-08
4.834534926064e-08
4.899967102509e-08
4.967788168232e-08
5.000000000000e-08
</indep>
<dep tran.v(in) time>
0.000000000000e+00
6.283143965559e-03
1.256603988335e-02
2.513009544334e-02
5.024431817977e-02
1.003617148512e-01
1.997099805144e-01
3.913736668372e-01
7.203090248879e-01
9.800102723642e-01
8.592279489523e-01
2.015170832507e-01
-7.205622916263e-01
-9.943548542369e-01
-6.272034078268e-01
1.690462432965e-01
9.288372740676e-01
9.165268800549e-01
3.263047476145e-01
-4.909347003604e-01
-9.746213481084e-01
-8.569121855064e-01
-2.105931532435e-01
6.578385474085e-01
9.997649063206e-01
7.198862282272e-01
-2.521821432567e-02
-9.039891068126e-01
-9.292788163564e-01
-3.383272472998e-01
4.567292037351e-01
9.645116802384e-01
8.821731800104e-01
2.617392148064e-01
-6.003092683490e-01
-9.958087128444e-01
-7.719775131220e-01
-5.546275423109e-02
8.292456213660e-01
9.734107253914e-01
4.633320527363e-01
-3.231857874250e-01
-9.292808016229e-01
-9.293804998373e-01
-3.775012245784e-01
4.748428807861e-01
9.741302425189e-01
8.618190853364e-01
2.159519152622e-01
-6.440374089251e-01
-9.991477698660e-01
-7.339871054033e-01
3.531379783554e-03
8.860686604777e-01
9.428987021286e-01
3.716267549947e-01
-4.227357131337e-01
-9.556898194007e-01
-9.013753021814e-01
-3.017866812148e-01
5.562618042723e-01
9.900284630132e-01
8.066347579959e-01
1.135628240716e-01
-7.671685269878e-01
-9.915623378043e-01
-5.443458365229e-01
2.258254387291e-01
9.247689059082e-01
9.258527388576e-01
3.590929708000e-01
-4.735278213225e-01
-9.719842739534e-01
-8.660950709767e-01
-2.263800862261e-01
6.340372548303e-01
9.985895416880e-01
7.431051650430e-01
1.028912423260e-02
-8.734762217855e-01
-9.511841832852e-01
-3.938218944620e-01
-2.449293598295e-15
</dep>
<dep tran.v(out) time>
0.000000000000e+00
3.125942271422e-05
9.362151455820e-05
2.802329190237e-04
1.020965075311e-03
3.933986700417e-03
1.517259139137e-02
5.670877395203e-02
1.944005179273e-01
4.355623536912e-01
6.551560963610e-01
5.931508407517e-01
1.051443403592e-01
-3.909687083753e-01
-5.910984635312e-01
-4.084629977727e-01
1.448515482750e-01
5.172642573048e-01
5.688329850457e-01
2.409919921708e-01
-2.433180593812e-01
-5.578851403878e-01
-5.460437985270e-01
-1.302411933187e-01
3.464451351210e-01
5.917279152231e-01
4.705070457025e-01
-1.002126652171e-01
-5.019462157551e-01
-5.684372010171e-01
-2.597888538508e-01
2.217205669485e-01
5.467227415140e-01
5.590879083026e-01
1.722476569087e-01
-3.118460503047e-01
-5.829368035273e-01
-4.991875122923e-01
1.711500549265e-02
4.538170686073e-01
5.884682459342e-01
3.355661836696e-01
-1.562751930304e-01
-5.139497132253e-01
-5.816701034305e-01
-2.542116665720e-01
2.396343309168e-01
5.546036759353e-01
5.468618181927e-01
1.399032546478e-01
-3.373872385817e-01
-5.899914358188e-01
-4.786240748280e-01
7.835667907944e-02
4.903320102259e-01
5.747434840399e-01
2.801465593033e-01
-2.035667203742e-01
-5.356623103149e-01
-5.679864720284e-01
-2.024249774377e-01
2.861544731492e-01
5.743468268633e-01
5.178969330325e-01
4.109968485139e-02
-4.144279424394e-01
-5.954968822303e-01
-3.841572501637e-01
1.432724188185e-01
5.129490091765e-01
5.764406234472e-01
2.531800119442e-01
-2.358709034334e-01
-5.533442140119e-01
-5.498509765794e-01
-1.475001153201e-01
3.314482849020e-01
5.885087422471e-01
4.835871499240e-01
-6.390232406679e-02
-4.821973732098e-01
-5.785806283769e-01
-4.726921431387e-01
</dep>
<indep frequency 301>
1.000000000000e+03
1.047128548051e+03
1.096478196143e+03
1.148153621497e+03
1.202264434617e+03
1.258925411794e+03
1.318256738556e+03
1.380384264603e+03
1.445439770746e+03
1.513561248436e+03
1.584893192461e+03
1.659586907438e+03
1.737800828749e+03
1.819700858610e+03
1.905460717963e+03
1.995262314969e+03
2.089296130854e+03
2.187761623950e+03
2.290867652768e+03
2.398832919019e+03
2.511886431510e+03
2.630267991895e+03
2.754228703338e+03
2.884031503127e+03
3.019951720402e+03
3.162277660168e+03
3.311311214826e+03
3.467368504525e+03
3.630780547701e+03
3.801893963206e+03
3.981071705535e+03
4.168693834703e+03
4.365158322402e+03
4.570881896149e+03
4.786300923226e+03
5.011872336273e+03
5.248074602498e+03
5.495408738576e+03
5.754399373372e+03
6.025595860744e+03
6.309573444802e+03
6.606934480076e+03
6.918309709189e+03
7.244359600750e+03
7.585775750292e+03
7.943282347243e+03
8.317637711027e+03
8.709635899561e+03
9.120108393559e+03
9.549925860214e+03
1.000000000000e+04
1.047128548051e+04
1.096478196143e+04
1.148153621497e+04
1.202264434617e+04
1.258925411794e+04
1.318256738556e+04
1.380384264603e+04
1.445439770746e+04
1.513561248436e+04
1.584893192461e+04
1.659586907438e+04
1.737800828749e+04
1.819700858610e+04
1.905460717963e+04
1.995262314969e+04
2.089296130854e+04
2.187761623950e+04
2.290867652768e+04
2.398832919020e+04
2.511886431510e+04
2.630267991895e+04
2.754228703338e+04
2.884031503127e+04
3.019951720402e+04
3.162277660168e+04
3.311311214826e+04
3.467368504525e+04
3.630780547701e+04
3.801893963206e+04
3.981071705535e+04
4.168693834703e+04
4.365158322402e+04
4.570881896149e+04
4.786300923226e+04
5.011872336273e+04
5.248074602498e+04
5.495408738576e+04
5.754399373372e+04
6.025595860744e+04
6.309573444802e+04
6.606934480076e+04
6.918309709189e+04
7.244359600750e+04
7.585775750292e+04
7.943282347243e+04
8.317637711027e+04
8.709635899561e+04
9.120108393559e+04
9.549925860214e+04
1.000000000000e+05
1.047128548051e+05
1.096478196143e+05
1.148153621497e+05
1.202264434617e+05
1.258925411794e+05
1.318256738556e+05
1.380384264603e+05
1.445439770746e+05
1.513561248436e+05
1.584893192461e+05
1.659586907438e+05
1.737800828749e+05
1.819700858610e+05
1.905460717963e+05
1.995262314969e+05
2.089296130854e+05
2.187761623950e+05
2.290867652768e+05
2.398832919020e+05
2.511886431510e+05
2.630267991895e+05
2.754228703338e+05
2.884031503127e+05
3.019951720402e+05
3.162277660168e+05
3.311311214826e+05
3.467368504525e+05
3.630780547701e+05
3.801893963206e+05
3.981071705535e+05
4.168693834703e+05
4.365158322402e+05
4.570881896149e+05
4.786300923226e+05
5.011872336273e+05
5.248074602498e+05
5.495408738576e+05
5.754399373372e+05
6.025595860744e+05
6.309573444802e+05
6.606934480076e+05
6.918309709189e+05
7.244359600750e+05
7.585775750292e+05
7.943282347243e+05
8.317637711027e+05
8.709635899561e+05
9.120108393559e+05
9.549925860214e+05
1.000000000000e+06
1.047128548051e+06
1.096478196143e+06
1.148153621497e+06
1.202264434617e+06
1.258925411794e+06
1.318256738556e+06
1.380384264603e+06
1.445439770746e+06
1.513561248436e+06
1.584893192461e+06
1.659586907438e+06
1.737800828749e+06
1.819700858610e+06
1.905460717963e+06
1.995262314969e+06
2.089296130854e+06
2.187761623950e+06
2.290867652768e+06
2.398832919020e+06
2.511886431510e+06
2.630267991895e+06
2.754228703338e+06
2.884031503127e+06
3.019951720402e+06
3.162277660168e+06
3.311311214826e+06
3.467368504525e+06
3.630780547701e+06
3.801893963206e+06
3.981071705535e+06
4.168693834703e+06
4.365158322402e+06
4.570881896149e+06
4.786300923226e+06
5.011872336273e+06
5.248074602498e+06
5.495408738576e+06
5.754399373372e+06
6.025595860744e+06
6.309573444802e+06
6.606934480076e+06
6.918309709189e+06
7.244359600750e+06
7.585775750292e+06
7.943282347243e+06
8.317637711027e+06
8.709635899561e+06
9.120108393559e+06
9.549925860214e+06
1.000000000000e+07
1.047128548051e+07
1.096478196143e+07
1.148153621497e+07
1.202264434617e+07
1.258925411794e+07
1.318256738556e+07
1.380384264603e+07
1.445439770746e+07
1.513561248436e+07
1.584893192461e+07
1.659586907438e+07
1.737800828749e+07
1.819700858610e+07
1.905460717963e+07
1.995262314969e+07
2.089296130854e+07
2.187761623950e+07
2.290867652768e+07
2.398832919020e+07
2.511886431510e+07
2.630267991895e+07
2.754228703338e+07
2.884031503127e+07
3.019951720402e+07
3.162277660168e+07
3.311311214826e+07
3.467368504525e+07
3.630780547701e+07
3.801893963206e+07
3.981071705535e+07
4.168693834703e+07
4.365158322402e+07
4.570881896149e+07
4.786300923226e+07
5.011872336273e+07
5.248074602498e+07
5.495408738576e+07
5.754399373372e+07
6.025595860744e+07
6.309573444802e+07
6.606934480076e+07
6.918309709189e+07
7.244359600750e+07
7.585775750292e+07
7.943282347243e+07
8.317637711027e+07
8.709635899561e+07
9.120108393559e+07
9.549925860215e+07
1.000000000000e+08
1.047128548051e+08
1.096478196143e+08
1.148153621497e+08
1.202264434617e+08
1.258925411794e+08
1.318256738556e+08
1.380384264603e+08
1.445439770746e+08
1.513561248436e+08
1.584893192461e+08
1.659586907438e+08
1.737800828749e+08
1.819700858610e+08
1.905460717963e+08
1.995262314969e+08
2.089296130854e+08
2.187761623950e+08
2.290867652768e+08
2.398832919020e+08
2.511886431510e+08
2.630267991895e+08
2.754228703338e+08
2.884031503127e+08
3.019951720402e+08
3.162277660168e+08
3.311311214826e+08
3.467368504525e+08
3.630780547701e+08
3.801893963206e+08
3.981071705535e+08
4.168693834703e+08
4.365158322402e+08
4.570881896149e+08
4.786300923226e+08
5.011872336273e+08
5.248074602498e+08
5.495408738576e+08
5.754399373372e+08
6.025595860744e+08
6.309573444802e+08
6.606934480076e+08
6.918309709190e+08
7.244359600750e+08
7.585775750292e+08
7.943282347243e+08
8.317637711027e+08
8.709635899561e+08
9.120108393559e+08
9.549925860215e+08
1.000000000000e+09
</indep>
<dep ac.v(in) frequency>
1.000000000000e+00+j0.000000000000e+00
1.000000000000e+00+j0.000000000000e+00
1.000000000000e+00+j0.000000000000e+00
1.000000000000e+00+j0.000000000000e+00
1.000000000000e+00+j0.000000000000e+00
1.000000000000e+00+j0.000000000000e+00
1.000000000000e+00+j0.000000000000e+00
1.000000000000e+00+j0.000000000000e+00
1.000000000000e+00+j0.000000000000e+00
1.000000000000e+00+j0.000000000000e+00
1.000000000000e+00+j0.000000000000e+00
1.000000000000e+00+j0.000000000000e+00
1.000000000000e+00+j0.000000000000e+00
1.000000000000e+00+j0.000000000000e+00
1.000000000000e+00+j0.000000000000e+00
1.000000000000e+00+j0.000000000000e+00
1.000000000000e+00+j0.000000000000e+00
1.000000000000e+00+j0.000000000000e+00
1.000000000000e+00+j0.000000000000e+00
1.000000000000e+00+j0.000000000000e+00
1.000000000000e+00+j0.000000000000e+00
1.000000000000e+00+j0.000000000000e+00
1.000000000000e+00+j0.000000000000e+00
1.000000000000e+00+j0.000000000000e+00
1.000000000000e+00+j0.000000000000e+00
1.000000000000e+00+j0.000000000000e+00
1.000000000000e+00+j0.000000000000e+00
1.000000000000e+00+j0.000000000000e+00
1.000000000000e+00+j0.000000000000e+00
1.000000000000e+00+j0.000000000000e+00
1.000000000000e+00+j0.000000000000e+00
1.000000000000e+00+j0.000000000000e+00
1.000000000000e+00+j0.000000000000e+00
1.000000000000e+00+j0.000000000000e+00
1.000000000000e+00+j0.000000000000e+00
1.000000000000e+00+j0.000000000000e+00
1.000000000000e+00+j0.000000000000e+00
1.000000000000e+00+j0.000000000000e+00
1.000000000000e+00+j0.000000000000e+00
1.000000000000e+00+j0.000000000000e+00
1.000000000000e+00+j0.000000000000e+00
1.000000000000e+00+j0.000000000000e+00
1.000000000000e+00+j0.000000000000e+00
1.000000000000e+00+j0.000000000000e+00
1.000000000000e+00+j0.000000000000e+00
1.000000000000e+00+j0.000000000000e+00
1.000000000000e+00+j0.000000000000e+00
1.000000000000e+00+j0.000000000000e+00
1.000000000000e+00+j0.000000000000e+00
1.000000000000e+00+j0.000000000000e+00
1.000000000000e+00+j0.000000000000e+00
1.000000000000e+00+j0.000000000000e+00
1.000000000000e+00+j0.000000000000e+00
1.000000000000e+00+j0.000000000000e+00
1.000000000000e+00+j0.000000000000e+00
1.000000000000e+00+j0.000000000000e+00
1.000000000000e+00+j0.000000000000e+00
1.000000000000e+00+j0.000000000000e+00
1.000000000000e+00+j0.000000000000e+00
1.000000000000e+00+j0.000000000000e+00
1.000000000000e+00+j0.000000000000e+00
1.000000000000e+00+j0.000000000000e+00
1.000000000000e+00+j0.000000000000e+00
1.000000000000e+00+j0.000000000000e+00
1.000000000000e+00+j0.000000000000e+00
1.000000000000e+00+j0.000000000000e+00
1.000000000000e+00+j0.000000000000e+00
1.000000000000e+00+j0.000000000000e+00
1.000000000000e+00+j0.000000000000e+00
1.000000000000e+00+j0.000000000000e+00
1.000000000000e+00+j0.000000000000e+00
1.000000000000e+00+j0.000000000000e+00
1.000000000000e+00+j0.000000000000e+00
1.000000000000e+00+j0.000000000000e+00
1.000000000000e+00+j0.000000000000e+00
1.000000000000e+00+j0.000000000000e+00
1.000000000000e+00+j0.000000000000e+00
1.000000000000e+00+j0.000000000000e+00
1.000000000000e+00+j0.000000000000e+00
1.000000000000e+00+j0.000000000000e+00
1.000000000000e+00+j0.000000000000e+00
1.000000000000e+00+j0.000000000000e+00
1.000000000000e+00+j0.000000000000e+00
1.000000000000e+00+j0.000000000000e+00
1.000000000000e+00+j0.000000000000e+00
1.000000000000e+00+j0.000000000000e+00
1.000000000000e+00+j0.000000000000e+00
1.000000000000e+00+j0.000000000000e+00
1.000000000000e+00+j0.000000000000e+00
1.000000000000e+00+j0.000000000000e+00
1.000000000000e+00+j0.000000000000e+00
1.000000000000e+00+j0.000000000000e+00
1.000000000000e+00+j0.000000000000e+00
1.000000000000e+00+j0.000000000000e+00
1.000000000000e+00+j0.000000000000e+00
1.000000000000e+00+j0.000000000000e+00
1.000000000000e+00+j0.000000000000e+00
1.000000000000e+00+j0.000000000000e+00
1.000000000000e+00+j0.000000000000e+00
1.000000000000e+00+j0.000000000000e+00
1.000000000000e+00+j0.000000000000e+00
1.000000000000e+00+j0.000000000000e+00
1.000000000000e+00+j0.000000000000e+00
1.000000000000e+00+j0.000000000000e+00
1.000000000000e+00+j0.000000000000e+00
1.000000000000e+00+j0.000000000000e+00
1.000000000000e+00+j0.000000000000e+00
1.000000000000e+00+j0.000000000000e+00
1.000000000000e+00+j0.000000000000e+00
1.000000000000e+00+j0.000000000000e+00
1.000000000000e+00+j0.000000000000e+00
1.000000000000e+00+j0.000000000000e+00
1.000000000000e+00+j0.000000000000e+00
1.000000000000e+00+j0.000000000000e+00
1.000000000000e+00+j0.000000000000e+00
1.000000000000e+00+j0.000000000000e+00
1.000000000000e+00+j0.000000000000e+00
1.000000000000e+00+j0.000000000000e+00
1.000000000000e+00+j0.000000000000e+00
1.000000000000e+00+j0.000000000000e+00
1.000000000000e+00+j0.000000000000e+00
1.000000000000e+00+j0.000000000000e+00
1.000000000000e+00+j0.000000000000e+00
1.000000000000e+00+j0.000000000000e+00
1.000000000000e+00+j0.000000000000e+00
1.000000000000e+00+j0.000000000000e+00
1.000000000000e+00+j0.000000000000e+00
1.000000000000e+00+j0.000000000000e+00
1.000000000000e+00+j0.000000000000e+00
1.000000000000e+00+j0.000000000000e+00
1.000000000000e+00+j0.000000000000e+00
1.000000000000e+00+j0.000000000000e+00
1.000000000000e+00+j0.000000000000e+00
1.000000000000e+00+j0.000000000000e+00
1.000000000000e+00+j0.000000000000e+00
1.000000000000e+00+j0.000000000000e+00
1.000000000000e+00+j0.000000000000e+00
1.000000000000e+00+j0.000000000000e+00
1.000000000000e+00+j0.000000000000e+00
1.000000000000e+00+j0.000000000000e+00
1.000000000000e+00+j0.000000000000e+00
1.000000000000e+00+j0.000000000000e+00
1.000000000000e+00+j0.000000000000e+00
1.000000000000e+00+j0.000000000000e+00
1.000000000000e+00+j0.000000000000e+00
1.000000000000e+00+j0.000000000000e+00
1.000000000000e+00+j0.000000000000e+00
1.000000000000e+00+j0.000000000000e+00
1.000000000000e+00+j0.000000000000e+00
1.000000000000e+00+j0.000000000000e+00
1.000000000000e+00+j0.000000000000e+00
1.000000000000e+00+j0.000000000000e+00
1.000000000000e+00+j0.000000000000e+00
1.000000000000e+00+j0.000000000000e+00
1.000000000000e+00+j0.000000000000e+00
1.000000000000e+00+j0.000000000000e+00
1.000000000000e+00+j0.000000000000e+00
1.000000000000e+00+j0.000000000000e+00
1.000000000000e+00+j0.000000000000e+00
1.000000000000e+00+j0.000000000000e+00
1.000000000000e+00+j0.000000000000e+00
1.000000000000e+00+j0.000000000000e+00
1.000000000000e+00+j0.000000000000e+00
1.000000000000e+00+j0.000000000000e+00
1.000000000000e+00+j0.000000000000e+00
1.000000000000e+00+j0.000000000000e+00
1.000000000000e+00+j0.000000000000e+00
1.000000000000e+00+j0.000000000000e+00
1.000000000000e+00+j0.000000000000e+00
1.000000000000e+00+j0.000000000000e+00
1.000000000000e+00+j0.000000000000e+00
1.000000000000e+00+j0.000000000000e+00
1.000000000000e+00+j0.000000000000e+00
1.000000000000e+00+j0.000000000000e+00
1.000000000000e+00+j0.000000000000e+00
1.000000000000e+00+j0.000000000000e+00
1.000000000000e+00+j0.000000000000e+00
1.000000000000e+00+j0.000000000000e+00
1.000000000000e+00+j0.000000000000e+00
1.000000000000e+00+j0.000000000000e+00
1.000000000000e+00+j0.000000000000e+00
1.000000000000e+00+j0.000000000000e+00
1.000000000000e+00+j0.000000000000e+00
1.000000000000e+00+j0.000000000000e+00
1.000000000000e+00+j0.000000000000e+00
1.000000000000e+00+j0.000000000000e+00
1.000000000000e+00+j0.000000000000e+00
1.000000000000e+00+j0.000000000000e+00
1.000000000000e+00+j0.000000000000e+00
1.000000000000e+00+j0.000000000000e+00
1.000000000000e+00+j0.000000000000e+00
1.000000000000e+00+j0.000000000000e+00
1.000000000000e+00+j0.000000000000e+00
1.000000000000e+00+j0.000000000000e+00
1.000000000000e+00+j0.000000000000e+00
1.000000000000e+00+j0.000000000000e+00
1.000000000000e+00+j0.000000000000e+00
1.000000000000e+00+j0.000000000000e+00
1.000000000000e+00+j0.000000000000e+00
1.000000000000e+00+j0.000000000000e+00
1.000000000000e+00+j0.000000000000e+00
1.000000000000e+00+j0.000000000000e+00
1.000000000000e+00+j0.000000000000e+00
1.000000000000e+00+j0.000000000000e+00
1.000000000000e+00+j0.000000000000e+00
1.000000000000e+00+j0.000000000000e+00
1.000000000000e+00+j0.000000000000e+00
1.000000000000e+00+j0.000000000000e+00
1.000000000000e+00+j0.000000000000e+00
1.000000000000e+00+j0.000000000000e+00
1.000000000000e+00+j0.000000000000e+00
1.000000000000e+00+j0.000000000000e+00
1.000000000000e+00+j0.000000000000e+00
1.000000000000e+00+j0.000000000000e+00
1.000000000000e+00+j0.000000000000e+00
1.000000000000e+00+j0.000000000000e+00
1.000000000000e+00+j0.000000000000e+00
1.000000000000e+00+j0.000000000000e+00
1.000000000000e+00+j0.000000000000e+00
1.000000000000e+00+j0.000000000000e+00
1.000000000000e+00+j0.000000000000e+00
1.000000000000e+00+j0.000000000000e+00
1.000000000000e+00+j0.000000000000e+00
1.000000000000e+00+j0.000000000000e+00
1.000000000000e+00+j0.000000000000e+00
1.000000000000e+00+j0.000000000000e+00
1.000000000000e+00+j0.000000000000e+00
1.000000000000e+00+j0.000000000000e+00
1.000000000000e+00+j0.000000000000e+00
1.000000000000e+00+j0.000000000000e+00
1.000000000000e+00+j0.000000000000e+00
1.000000000000e+00+j0.000000000000e+00
1.000000000000e+00+j0.000000000000e+00
1.000000000000e+00+j0.000000000000e+00
1.000000000000e+00+j0.000000000000e+00
1.000000000000e+00+j0.000000000000e+00
1.000000000000e+00+j0.000000000000e+00
1.000000000000e+00+j0.000000000000e+00
