<Qucs Dataset 24.4.1>
<indep frequency 121>
1.000000000000e+03
1.059253725177e+03
1.122018454302e+03
1.188502227437e+03
1.258925411794e+03
1.333521432163e+03
1.412537544623e+03
1.496235656094e+03
1.584893192461e+03
1.678804018123e+03
1.778279410039e+03
1.883649089490e+03
1.995262314969e+03
2.113489039837e+03
2.238721138568e+03
2.371373705662e+03
2.511886431510e+03
2.660725059799e+03
2.818382931264e+03
2.985382618918e+03
3.162277660168e+03
3.349654391578e+03
3.548133892336e+03
3.758374042884e+03
3.981071705535e+03
4.216965034286e+03
4.466835921510e+03
4.731512589615e+03
5.011872336273e+03
5.308844442310e+03
5.623413251903e+03
5.956621435290e+03
6.309573444802e+03
6.683439175686e+03
7.079457843841e+03
7.498942093325e+03
7.943282347243e+03
8.413951416452e+03
8.912509381337e+03
9.440608762859e+03
1.000000000000e+04
1.059253725177e+04
1.122018454302e+04
1.188502227437e+04
1.258925411794e+04
1.333521432163e+04
1.412537544623e+04
1.496235656094e+04
1.584893192461e+04
1.678804018123e+04
1.778279410039e+04
1.883649089490e+04
1.995262314969e+04
2.113489039837e+04
2.238721138568e+04
2.371373705662e+04
2.511886431510e+04
2.660725059799e+04
2.818382931264e+04
2.985382618918e+04
3.162277660168e+04
3.349654391578e+04
3.548133892336e+04
3.758374042884e+04
3.981071705535e+04
4.216965034286e+04
4.466835921510e+04
4.731512589615e+04
5.011872336273e+04
5.308844442310e+04
5.623413251903e+04
5.956621435290e+04
6.309573444802e+04
6.683439175686e+04
7.079457843841e+04
7.498942093325e+04
7.943282347243e+04
8.413951416452e+04
8.912509381337e+04
9.440608762859e+04
1.000000000000e+05
1.059253725177e+05
1.122018454302e+05
1.188502227437e+05
1.258925411794e+05
1.333521432163e+05
1.412537544623e+05
1.496235656094e+05
1.584893192461e+05
1.678804018123e+05
1.778279410039e+05
1.883649089490e+05
1.995262314969e+05
2.113489039837e+05
2.238721138568e+05
2.371373705662e+05
2.511886431510e+05
2.660725059799e+05
2.818382931264e+05
2.985382618918e+05
3.162277660168e+05
3.349654391578e+05
3.548133892336e+05
3.758374042884e+05
3.981071705535e+05
4.216965034286e+05
4.466835921510e+05
4.731512589615e+05
5.011872336273e+05
5.308844442310e+05
5.623413251903e+05
5.956621435290e+05
6.309573444802e+05
6.683439175686e+05
7.079457843841e+05
7.498942093325e+05
7.943282347243e+05
8.413951416452e+05
8.912509381337e+05
9.440608762859e+05
1.000000000000e+06
</indep>
<dep ac.v(vcc_15) frequency>
0.000000000000e+00+j0.000000000000e+00
0.000000000000e+00+j0.000000000000e+00
0.000000000000e+00+j0.000000000000e+00
0.000000000000e+00+j0.000000000000e+00
0.000000000000e+00+j0.000000000000e+00
0.000000000000e+00+j0.000000000000e+00
0.000000000000e+00+j0.000000000000e+00
0.000000000000e+00+j0.000000000000e+00
0.000000000000e+00+j0.000000000000e+00
0.000000000000e+00+j0.000000000000e+00
0.000000000000e+00+j0.000000000000e+00
0.000000000000e+00+j0.000000000000e+00
0.000000000000e+00+j0.000000000000e+00
0.000000000000e+00+j0.000000000000e+00
0.000000000000e+00+j0.000000000000e+00
0.000000000000e+00+j0.000000000000e+00
0.000000000000e+00+j0.000000000000e+00
0.000000000000e+00+j0.000000000000e+00
0.000000000000e+00+j0.000000000000e+00
0.000000000000e+00+j0.000000000000e+00
0.000000000000e+00+j0.000000000000e+00
0.000000000000e+00+j0.000000000000e+00
0.000000000000e+00+j0.000000000000e+00
0.000000000000e+00+j0.000000000000e+00
0.000000000000e+00+j0.000000000000e+00
0.000000000000e+00+j0.000000000000e+00
0.000000000000e+00+j0.000000000000e+00
0.000000000000e+00+j0.000000000000e+00
0.000000000000e+00+j0.000000000000e+00
0.000000000000e+00+j0.000000000000e+00
0.000000000000e+00+j0.000000000000e+00
0.000000000000e+00+j0.000000000000e+00
0.000000000000e+00+j0.000000000000e+00
0.000000000000e+00+j0.000000000000e+00
0.000000000000e+00+j0.000000000000e+00
0.000000000000e+00+j0.000000000000e+00
0.000000000000e+00+j0.000000000000e+00
0.000000000000e+00+j0.000000000000e+00
0.000000000000e+00+j0.000000000000e+00
0.000000000000e+00+j0.000000000000e+00
0.000000000000e+00+j0.000000000000e+00
0.000000000000e+00+j0.000000000000e+00
0.000000000000e+00+j0.000000000000e+00
0.000000000000e+00+j0.000000000000e+00
0.000000000000e+00+j0.000000000000e+00
0.000000000000e+00+j0.000000000000e+00
0.000000000000e+00+j0.000000000000e+00
0.000000000000e+00+j0.000000000000e+00
0.000000000000e+00+j0.000000000000e+00
0.000000000000e+00+j0.000000000000e+00
0.000000000000e+00+j0.000000000000e+00
0.000000000000e+00+j0.000000000000e+00
0.000000000000e+00+j0.000000000000e+00
0.000000000000e+00+j0.000000000000e+00
0.000000000000e+00+j0.000000000000e+00
0.000000000000e+00+j0.000000000000e+00
0.000000000000e+00+j0.000000000000e+00
0.000000000000e+00+j0.000000000000e+00
0.000000000000e+00+j0.000000000000e+00
0.000000000000e+00+j0.000000000000e+00
0.000000000000e+00+j0.000000000000e+00
0.000000000000e+00+j0.000000000000e+00
0.000000000000e+00+j0.000000000000e+00
0.000000000000e+00+j0.000000000000e+00
0.000000000000e+00+j0.000000000000e+00
0.000000000000e+00+j0.000000000000e+00
0.000000000000e+00+j0.000000000000e+00
0.000000000000e+00+j0.000000000000e+00
0.000000000000e+00+j0.000000000000e+00
0.000000000000e+00+j0.000000000000e+00
0.000000000000e+00+j0.000000000000e+00
0.000000000000e+00+j0.000000000000e+00
0.000000000000e+00+j0.000000000000e+00
0.000000000000e+00+j0.000000000000e+00
0.000000000000e+00+j0.000000000000e+00
0.000000000000e+00+j0.000000000000e+00
0.000000000000e+00+j0.000000000000e+00
0.000000000000e+00+j0.000000000000e+00
0.000000000000e+00+j0.000000000000e+00
0.000000000000e+00+j0.000000000000e+00
0.000000000000e+00+j0.000000000000e+00
0.000000000000e+00+j0.000000000000e+00
0.000000000000e+00+j0.000000000000e+00
0.000000000000e+00+j0.000000000000e+00
0.000000000000e+00+j0.000000000000e+00
0.000000000000e+00+j0.000000000000e+00
0.000000000000e+00+j0.000000000000e+00
0.000000000000e+00+j0.000000000000e+00
0.000000000000e+00+j0.000000000000e+00
0.000000000000e+00+j0.000000000000e+00
0.000000000000e+00+j0.000000000000e+00
0.000000000000e+00+j0.000000000000e+00
0.000000000000e+00+j0.000000000000e+00
0.000000000000e+00+j0.000000000000e+00
0.000000000000e+00+j0.000000000000e+00
0.000000000000e+00+j0.000000000000e+00
0.000000000000e+00+j0.000000000000e+00
0.000000000000e+00+j0.000000000000e+00
0.000000000000e+00+j0.000000000000e+00
0.000000000000e+00+j0.000000000000e+00
0.000000000000e+00+j0.000000000000e+00
0.000000000000e+00+j0.000000000000e+00
0.000000000000e+00+j0.000000000000e+00
0.000000000000e+00+j0.000000000000e+00
0.000000000000e+00+j0.000000000000e+00
0.000000000000e+00+j0.000000000000e+00
0.000000000000e+00+j0.000000000000e+00
0.000000000000e+00+j0.000000000000e+00
0.000000000000e+00+j0.000000000000e+00
0.000000000000e+00+j0.000000000000e+00
0.000000000000e+00+j0.000000000000e+00
0.000000000000e+00+j0.000000000000e+00
0.000000000000e+00+j0.000000000000e+00
0.000000000000e+00+j0.000000000000e+00
0.000000000000e+00+j0.000000000000e+00
0.000000000000e+00+j0.000000000000e+00
0.000000000000e+00+j0.000000000000e+00
0.000000000000e+00+j0.000000000000e+00
0.000000000000e+00+j0.000000000000e+00
0.000000000000e+00+j0.000000000000e+00
0.000000000000e+00+j0.000000000000e+00
</dep>
<dep ac.v(vcc_5) frequency>
0.000000000000e+00+j0.000000000000e+00
0.000000000000e+00+j0.000000000000e+00
0.000000000000e+00+j0.000000000000e+00
0.000000000000e+00+j0.000000000000e+00
0.000000000000e+00+j0.000000000000e+00
0.000000000000e+00+j0.000000000000e+00
0.000000000000e+00+j0.000000000000e+00
0.000000000000e+00+j0.000000000000e+00
0.000000000000e+00+j0.000000000000e+00
0.000000000000e+00+j0.000000000000e+00
0.000000000000e+00+j0.000000000000e+00
0.000000000000e+00+j0.000000000000e+00
0.000000000000e+00+j0.000000000000e+00
0.000000000000e+00+j0.000000000000e+00
0.000000000000e+00+j0.000000000000e+00
0.000000000000e+00+j0.000000000000e+00
0.000000000000e+00+j0.000000000000e+00
0.000000000000e+00+j0.000000000000e+00
0.000000000000e+00+j0.000000000000e+00
0.000000000000e+00+j0.000000000000e+00
0.000000000000e+00+j0.000000000000e+00
0.000000000000e+00+j0.000000000000e+00
0.000000000000e+00+j0.000000000000e+00
0.000000000000e+00+j0.000000000000e+00
0.000000000000e+00+j0.000000000000e+00
0.000000000000e+00+j0.000000000000e+00
0.000000000000e+00+j0.000000000000e+00
0.000000000000e+00+j0.000000000000e+00
0.000000000000e+00+j0.000000000000e+00
0.000000000000e+00+j0.000000000000e+00
0.000000000000e+00+j0.000000000000e+00
0.000000000000e+00+j0.000000000000e+00
0.000000000000e+00+j0.000000000000e+00
0.000000000000e+00+j0.000000000000e+00
0.000000000000e+00+j0.000000000000e+00
0.000000000000e+00+j0.000000000000e+00
0.000000000000e+00+j0.000000000000e+00
0.000000000000e+00+j0.000000000000e+00
0.000000000000e+00+j0.000000000000e+00
0.000000000000e+00+j0.000000000000e+00
0.000000000000e+00+j0.000000000000e+00
0.000000000000e+00+j0.000000000000e+00
0.000000000000e+00+j0.000000000000e+00
0.000000000000e+00+j0.000000000000e+00
0.000000000000e+00+j0.000000000000e+00
0.000000000000e+00+j0.000000000000e+00
0.000000000000e+00+j0.000000000000e+00
0.000000000000e+00+j0.000000000000e+00
0.000000000000e+00+j0.000000000000e+00
0.000000000000e+00+j0.000000000000e+00
0.000000000000e+00+j0.000000000000e+00
0.000000000000e+00+j0.000000000000e+00
0.000000000000e+00+j0.000000000000e+00
0.000000000000e+00+j0.000000000000e+00
0.000000000000e+00+j0.000000000000e+00
0.000000000000e+00+j0.000000000000e+00
0.000000000000e+00+j0.000000000000e+00
0.000000000000e+00+j0.000000000000e+00
0.000000000000e+00+j0.000000000000e+00
0.000000000000e+00+j0.000000000000e+00
0.000000000000e+00+j0.000000000000e+00
0.000000000000e+00+j0.000000000000e+00
0.000000000000e+00+j0.000000000000e+00
0.000000000000e+00+j0.000000000000e+00
0.000000000000e+00+j0.000000000000e+00
0.000000000000e+00+j0.000000000000e+00
0.000000000000e+00+j0.000000000000e+00
0.000000000000e+00+j0.000000000000e+00
0.000000000000e+00+j0.000000000000e+00
0.000000000000e+00+j0.000000000000e+00
0.000000000000e+00+j0.000000000000e+00
0.000000000000e+00+j0.000000000000e+00
0.000000000000e+00+j0.000000000000e+00
0.000000000000e+00+j0.000000000000e+00
0.000000000000e+00+j0.000000000000e+00
0.000000000000e+00+j0.000000000000e+00
0.000000000000e+00+j0.000000000000e+00
0.000000000000e+00+j0.000000000000e+00
0.000000000000e+00+j0.000000000000e+00
0.000000000000e+00+j0.000000000000e+00
0.000000000000e+00+j0.000000000000e+00
0.000000000000e+00+j0.000000000000e+00
0.000000000000e+00+j0.000000000000e+00
0.000000000000e+00+j0.000000000000e+00
0.000000000000e+00+j0.000000000000e+00
0.000000000000e+00+j0.000000000000e+00
0.000000000000e+00+j0.000000000000e+00
0.000000000000e+00+j0.000000000000e+00
0.000000000000e+00+j0.000000000000e+00
0.000000000000e+00+j0.000000000000e+00
0.000000000000e+00+j0.000000000000e+00
0.000000000000e+00+j0.000000000000e+00
0.000000000000e+00+j0.000000000000e+00
0.000000000000e+00+j0.000000000000e+00
0.000000000000e+00+j0.000000000000e+00
0.000000000000e+00+j0.000000000000e+00
0.000000000000e+00+j0.000000000000e+00
0.000000000000e+00+j0.000000000000e+00
0.000000000000e+00+j0.000000000000e+00
0.000000000000e+00+j0.000000000000e+00
0.000000000000e+00+j0.000000000000e+00
0.000000000000e+00+j0.000000000000e+00
0.000000000000e+00+j0.000000000000e+00
0.000000000000e+00+j0.000000000000e+00
0.000000000000e+00+j0.000000000000e+00
0.000000000000e+00+j0.000000000000e+00
0.000000000000e+00+j0.000000000000e+00
0.000000000000e+00+j0.000000000000e+00
0.000000000000e+00+j0.000000000000e+00
0.000000000000e+00+j0.000000000000e+00
0.000000000000e+00+j0.000000000000e+00
0.000000000000e+00+j0.000000000000e+00
0.000000000000e+00+j0.000000000000e+00
0.000000000000e+00+j0.000000000000e+00
0.000000000000e+00+j0.000000000000e+00
0.000000000000e+00+j0.000000000000e+00
0.000000000000e+00+j0.000000000000e+00
0.000000000000e+00+j0.000000000000e+00
0.000000000000e+00+j0.000000000000e+00
0.000000000000e+00+j0.000000000000e+00
0.000000000000e+00+j0.000000000000e+00
</dep>
<dep ac.v(ns11) frequency>
-1.874650233462e-04-j5.558409465894e-07
-1.874650460202e-04-j5.885188631982e-07
-1.874650714603e-04-j6.231474868473e-07
-1.874651000038e-04-j6.598415935241e-07
-1.874651320294e-04-j6.987228038102e-07
-1.874651679628e-04-j7.399200007002e-07
-1.874652082799e-04-j7.835697371991e-07
-1.874652535162e-04-j8.298166812998e-07
-1.874653042720e-04-j8.788141353661e-07
-1.874653612202e-04-j9.307245005669e-07
-1.874654251176e-04-j9.857198338473e-07
-1.874654968105e-04-j1.043982426216e-06
-1.874655772517e-04-j1.105705397249e-06
-1.874656675075e-04-j1.171093313275e-06
-1.874657687763e-04-j1.240362924523e-06
-1.874658824018e-04-j1.313743828200e-06
-1.874660098914e-04-j1.391479243551e-06
-1.874661529366e-04-j1.473826809713e-06
-1.874663134360e-04-j1.561059500787e-06
-1.874664935193e-04-j1.653466435655e-06
-1.874666955757e-04-j1.751353913049e-06
-1.874669222868e-04-j1.855046338692e-06
-1.874671766606e-04-j1.964887454266e-06
-1.874674620720e-04-j2.081241288653e-06
-1.874677823095e-04-j2.204493522822e-06
-1.874681416213e-04-j2.335052635341e-06
-1.874685447754e-04-j2.473351372300e-06
-1.874689971211e-04-j2.619848098873e-06
-1.874695046611e-04-j2.775028397944e-06
-1.874700741299e-04-j2.939406539556e-06
-1.874707130834e-04-j3.113527341624e-06
-1.874714300006e-04-j3.297967911544e-06
-1.874722343935e-04-j3.493339524038e-06
-1.874731369363e-04-j3.700289676001e-06
-1.874741496039e-04-j3.919504198504e-06
-1.874752858340e-04-j4.151709651297e-06
-1.874765607022e-04-j4.397675512573e-06
-1.874779911243e-04-j4.658216934475e-06
-1.874795960801e-04-j4.934197340015e-06
-1.874813968655e-04-j5.226531231948e-06
-1.874834173730e-04-j5.536187336746e-06
-1.874856844116e-04-j5.864191795111e-06
-1.874882280606e-04-j6.211631294152e-06
-1.874910820682e-04-j6.579657175374e-06
-1.874942843013e-04-j6.969488705761e-06
-1.874978772447e-04-j7.382417341602e-06
-1.875019085672e-04-j7.819811145966e-06
-1.875064317537e-04-j8.283118951468e-06
-1.875115068107e-04-j8.773875440911e-06
-1.875172010652e-04-j9.293706008363e-06
-1.875235900595e-04-j9.844332213252e-06
-1.875307585457e-04-j1.042757745668e-05
-1.875388016163e-04-j1.104537285238e-05
-1.875478259589e-04-j1.169976369639e-05
-1.875579512727e-04-j1.239291601073e-05
-1.875693118552e-04-j1.312712403699e-05
-1.875820583770e-04-j1.390481697647e-05
-1.875963598806e-04-j1.472856772857e-05
-1.876124060201e-04-j1.560110103577e-05
-1.876304095650e-04-j1.652530177994e-05
-1.876506092141e-04-j1.750422507662e-05
-1.876732727728e-04-j1.854110607680e-05
-1.876987006628e-04-j1.963936956383e-05
-1.877272299182e-04-j2.080264215655e-05
-1.877592386269e-04-j2.203476330233e-05
-1.877951509114e-04-j2.333979723379e-05
-1.878354425562e-04-j2.472204616261e-05
-1.878806472376e-04-j2.618606434267e-05
-1.879313635934e-04-j2.773667119252e-05
-1.879882630879e-04-j2.937896753134e-05
-1.880520988113e-04-j3.111835037496e-05
-1.881237154409e-04-j3.296052964239e-05
-1.882040602413e-04-j3.491154572692e-05
-1.882941955325e-04-j3.697778840085e-05
-1.883953125749e-04-j3.916601322488e-05
-1.885087470770e-04-j4.148336320953e-05
-1.886359966445e-04-j4.393738922169e-05
-1.887787402695e-04-j4.653607014782e-05
-1.889388600123e-04-j4.928783459125e-05
-1.891184654438e-04-j5.220158538106e-05
-1.893199207965e-04-j5.528672027101e-05
-1.895458752511e-04-j5.855315556657e-05
-1.897992969770e-04-j6.201135323746e-05
-1.900835108636e-04-j6.567233886814e-05
-1.904022404592e-04-j6.954773120326e-05
-1.907596552301e-04-j7.364976176276e-05
-1.911604224503e-04-j7.799129962553e-05
-1.916097651379e-04-j8.258587004479e-05
-1.921135268173e-04-j8.744767976886e-05
-1.926782420573e-04-j9.259162649217e-05
-1.933112160916e-04-j9.803331818612e-05
-1.940206117614e-04-j1.037890858258e-04
-1.948155451689e-04-j1.098759809886e-04
-1.957061914156e-04-j1.163117797099e-04
-1.967039010992e-04-j1.231149754065e-04
-1.978213250814e-04-j1.303047553310e-04
-1.990725543277e-04-j1.379009711697e-04
-2.004732679218e-04-j1.459240979118e-04
-2.020408942230e-04-j1.543951704976e-04
-2.037947844715e-04-j1.633357052405e-04
-2.057563964816e-04-j1.727675876888e-04
-2.079494884718e-04-j1.827129537150e-04
-2.104003237005e-04-j1.931940094257e-04
-2.131378789149e-04-j2.042328447271e-04
-2.161940578137e-04-j2.158511811129e-04
-2.196039031265e-04-j2.280700849110e-04
-2.234058023908e-04-j2.409096108145e-04
-2.276416771506e-04-j2.543884113110e-04
-2.323571517345e-04-j2.685232503137e-04
-2.376016812866e-04-j2.833284672700e-04
-2.434286391121e-04-j2.988153475590e-04
-2.498953215923e-04-j3.149914283649e-04
-2.570628825055e-04-j3.318597244595e-04
-2.649961453604e-04-j3.494178568222e-04
-2.737632820683e-04-j3.676571411217e-04
-2.834353285486e-04-j3.865616084766e-04
-2.940855075048e-04-j4.061069745283e-04
-3.057883153427e-04-j4.262596453213e-04
-3.186183806454e-04-j4.469757054902e-04
-3.326490108435e-04-j4.682000450725e-04
-3.479504925271e-04-j4.898655738700e-04
</dep>
<dep ac.v(ns12) frequency>
-3.160107440633e-12-j6.103722506174e-14
-3.545848433606e-12-j6.449407592182e-14
-3.978656940511e-12-j6.812494956150e-14
-4.464276060779e-12-j7.193438797829e-14
-5.009149656895e-12-j7.592611264584e-14
-5.620507860087e-12-j8.010277045930e-14
-6.306463009299e-12-j8.446562632997e-14
-7.076117296222e-12-j8.901419114406e-14
-7.939683545071e-12-j9.374577313043e-14
-8.908620729338e-12-j9.865493778225e-14
-9.995786024107e-12-j1.037328584648e-13
-1.121560541128e-11-j1.089665368823e-13
-1.258426510118e-11-j1.143378679722e-13
-1.411992631142e-11-j1.198225200682e-13
-1.584296625099e-11-j1.253885944065e-13
-1.777624850975e-11-j1.309950222701e-13
-1.994542643912e-11-j1.365896499884e-13
-2.237928354852e-11-j1.421069503752e-13
-2.511011543702e-11-j1.474652917062e-13
-2.817415832535e-11-j1.525636819782e-13
-3.161206987468e-11-j1.572778810275e-13
-3.546946867158e-11-j1.614557713217e-13
-3.979753953676e-11-j1.649118366715e-13
-4.465371269068e-11-j1.674205898264e-13
-5.010242577957e-11-j1.687087375192e-13
-5.621597888434e-11-j1.684458595404e-13
-6.307549384015e-11-j1.662333028936e-13
-7.077199060763e-11-j1.615909727381e-13
-7.940759496267e-11-j1.539416037721e-13
-8.909689353519e-11-j1.425920467047e-13
-9.996845416780e-11-j1.267110180607e-13
-1.121665317528e-10-j1.053025972561e-13
-1.258529821985e-10-j7.717474269063e-14
-1.412094098718e-10-j4.090181833280e-14
-1.584395770392e-10+j5.219971891581e-15
-1.777721072284e-10+j6.322555735581e-14
-1.994635183754e-10+j1.355440199782e-13
-2.238016259671e-10+j2.250735247593e-13
-2.511093613098e-10+j3.352703732833e-13
-2.817490555325e-10+j4.702549557877e-13
-3.161272461204e-10+j6.349376076607e-13
-3.547000696858e-10+j8.351683557548e-13
-3.979793124325e-10+j1.077914819096e-12
-4.465391984831e-10+j1.371473828243e-12
-5.010240060468e-10+j1.725722720349e-12
-5.621566121941e-10+j2.152418478864e-12
-6.307480795285e-10+j2.665552838216e-12
-7.077084115796e-10+j3.281774607358e-12
-7.940586192513e-10+j4.020891901965e-12
-8.909442580953e-10+j4.906468249274e-12
-9.996506153034e-10+j5.966532433764e-12
-1.121619747323e-09+j7.234420799567e-12
-1.258469593199e-09+j8.749779098249e-12
-1.412015416101e-09+j1.055975310158e-11
-1.584293856083e-09+j1.272040382581e-11
-1.777589911438e-09+j1.529838871083e-11
-1.994467204343e-09+j1.837296000422e-11
-2.237801929275e-09+j2.203834108881e-11
-2.510820931519e-09+j2.640654729203e-11
-2.817144415706e-09+j3.161074097165e-11
-3.160833845894e-09+j3.780921733299e-11
-3.546445665016e-09+j4.519014102212e-11
-3.979091537708e-09+j5.397717453685e-11
-4.464505903674e-09+j6.443616566271e-11
-5.009121724276e-09+j7.688309507301e-11
-5.620155407952e-09+j9.169351661075e-11
-6.305702019140e-09+j1.093137762917e-10
-7.074842004546e-09+j1.302743427757e-10
-7.937760816233e-09+j1.552056356291e-10
-8.905882972941e-09+j1.848568411695e-10
-9.992022280244e-09+j2.201182532945e-10
-1.121055013074e-08+j2.620478141871e-10
-1.257758402411e-08+j3.119026394116e-10
-1.411119869500e-08+j3.711764546233e-10
-1.583166250373e-08+j4.416440545688e-10
-1.776170204675e-08+j5.254140707607e-10
-1.992679826188e-08+j6.249916847170e-10
-2.235551767959e-08+j7.433529973272e-10
-2.507988284664e-08+j8.840333202835e-10
-2.813578637883e-08+j1.051232012238e-09
